# Version 1.00
#
freq[Hz];db:Trc1_S21;ang:Trc1_S21;
1.000000000000000E+007;-6.200044535820344E+001;7.148267515515180E+001;
1.038188855303029E+007;-6.605211676383561E+001;3.765895999151708E+001;
1.077836099275414E+007;-6.482292970777534E+001;1.034383762487472E+002;
1.118997426111024E+007;-6.079089844298605E+001;8.056327252074586E+001;
1.161730656901240E+007;-7.326652511398639E+001;7.793967266236494E+001;
1.206095820858735E+007;-7.052195690373507E+001;-9.580029589342253E+000;
1.252155239643097E+007;-6.180199475325649E+001;6.599188036425542E+001;
1.299973614906757E+007;-6.072840849714211E+001;7.787861458961881E+001;
1.349618119184187E+007;-6.042295067491244E+001;6.890711330056234E+001;
1.401158490252058E+007;-6.326736549504756E+001;8.747795820136815E+001;
1.454667129092905E+007;-5.964550980302735E+001;8.372892702755704E+001;
1.510219201599907E+007;-6.022117457407556E+001;4.920489669440288E+001;
1.567892744165662E+007;-5.820237543132966E+001;6.618703061162303E+001;
1.627768773303274E+007;-5.970083208005625E+001;4.327382025269289E+001;
1.689931399453742E+007;-6.032455054568208E+001;4.905398380439358E+001;
1.754467945139527E+007;-6.015824129274557E+001;3.289439942171565E+001;
1.821469067630263E+007;-5.716407572476171E+001;4.502212693140214E+001;
1.891028886292939E+007;-5.630096861186242E+001;4.194651969977804E+001;
1.963245114805428E+007;-5.923049418522830E+001;4.636085695432580E+001;
2.038219198419111E+007;-5.510637602286980E+001;3.541362782831489E+001;
2.116056456463395E+007;-5.577439852170507E+001;2.960637089235084E+001;
2.196866230292316E+007;-5.621233996968361E+001;1.583752336361955E+001;
2.280762036881060E+007;-5.621198819633500E+001;1.788969327137790E+001;
2.367861728288153E+007;-5.399278318932249E+001;8.132148721316169E+000;
2.458287657207330E+007;-5.465346061474132E+001;-1.344729629015850E+000;
2.552166848841643E+007;-5.340757409814189E+001;-1.696678022554168E+001;
2.649631179341245E+007;-5.340946784814290E+001;-1.160842765325836E+001;
2.750817561055502E+007;-5.377310467290143E+001;-2.797912003055578E+001;
2.855868134859682E+007;-5.180676793907303E+001;-3.688502918502357E+001;
2.964930469826371E+007;-5.202655979086683E+001;-3.887358605495410E+001;
3.078157770522112E+007;-5.150274478600865E+001;-4.407515788161928E+001;
3.195709092220476E+007;-5.106915929650904E+001;-4.893478212502887E+001;
3.317749564333858E+007;-5.020187778668607E+001;-6.179920334622316E+001;
3.444450622377892E+007;-4.991272370102615E+001;-6.658602895226662E+001;
3.575990248794310E+007;-4.984979474640031E+001;-7.145562368711124E+001;
3.712553222970559E+007;-4.948503502848637E+001;-8.406592057001194E+001;
3.854331380807376E+007;-4.872829935967636E+001;-9.282494441321713E+001;
4.001523884198953E+007;-4.827797579371790E+001;-1.028434581239185E+002;
4.154337500804243E+007;-4.798590095062945E+001;-1.131991143801063E+002;
4.312986894502404E+007;-4.726450316846663E+001;-1.179605186784043E+002;
4.477694926940417E+007;-4.686793325261335E+001;-1.312613155114907E+002;
4.648692970596453E+007;-4.626531258840209E+001;-1.415474978530126E+002;
4.826221233798770E+007;-4.552958370235817E+001;-1.511429217385346E+002;
5.010529098156718E+007;-4.535023287545876E+001;-1.637159956818881E+002;
5.201875468877842E+007;-4.447367414697635E+001;-1.735680617673129E+002;
5.400529138463195E+007;-4.398728324703404E+001;1.728827956137304E+002;
5.606769164291760E+007;-4.340541211067080E+001;1.592817955944167E+002;
5.820885260624383E+007;-4.297035091289721E+001;1.436338199424417E+002;
6.043178205577903E+007;-4.251626803832131E+001;1.304042616892657E+002;
6.273960263641138E+007;-4.207878623485306E+001;1.152277261285844E+002;
6.513555624326284E+007;-4.147451298900353E+001;9.913695378283651E+001;
6.762300857571912E+007;-4.126561255379732E+001;8.264363261021413E+001;
7.020545386537276E+007;-4.085030738233926E+001;6.537315755540585E+001;
7.288651978452097E+007;-4.049242480250504E+001;4.750645583260337E+001;
7.566997254211341E+007;-4.061124880706115E+001;2.794155935556436E+001;
7.855972217430838E+007;-4.029384498043569E+001;1.010507545137457E+001;
8.155982803706922E+007;-4.030565078174347E+001;-8.767746487436162E+000;
8.467450450851679E+007;-4.016154917068349E+001;-2.893943186319937E+001;
8.790812690904823E+007;-4.014974135016617E+001;-4.835269658021655E+001;
9.126523764753820E+007;-4.017113594064105E+001;-6.920481849449018E+001;
9.475055260225661E+007;-4.013953300705385E+001;-8.959976877563075E+001;
9.836896774546625E+007;-4.013001392087158E+001;-1.109361852525507E+002;
1.021255660210062E+008;-4.030366040174645E+001;-1.327350240893752E+002;
1.060256244845224E+008;-4.028078294961966E+001;-1.554406350254492E+002;
1.100746217163751E+008;-4.027287097509748E+001;-1.781551706580686E+002;
1.142782455176374E+008;-4.032001253539361E+001;1.579463729758303E+002;
1.186424008999945E+008;-4.038409284800083E+001;1.339010881328675E+002;
1.231732183807684E+008;-4.034640346292118E+001;1.086873344462391E+002;
1.278770625947199E+008;-4.037695527986254E+001;8.272289966106295E+001;
1.327605412347261E+008;-4.040850037090595E+001;5.508269793251282E+001;
1.378305143338909E+008;-4.034904687510906E+001;2.779568890239625E+001;
1.430941039021300E+008;-4.044963874414662E+001;-7.640418556776765E-001;
1.485587039307650E+008;-4.047012764386775E+001;-3.091398216577254E+001;
1.542319907791826E+008;-4.041436828961273E+001;-6.102626418253087E+001;
1.601219339581469E+008;-4.043862429664745E+001;-9.346431337456723E+001;
1.662368073249158E+008;-4.050214913625827E+001;-1.260039385235168E+002;
1.725852007058845E+008;-4.050315310141829E+001;-1.606066684797821E+002;
1.791760319630858E+008;-4.052578222513915E+001;1.641190537521763E+002;
1.860185595214950E+008;-4.058687061039246E+001;1.272102334692010E+002;
1.931223953747393E+008;-4.056764388454783E+001;8.927623766392486E+001;
2.004975185874796E+008;-4.058608160425299E+001;5.035809707740339E+001;
2.081542893134333E+008;-4.052575205281005E+001;9.040924741098934E+000;
2.161034633487289E+008;-4.054545603857288E+001;-3.305294220405734E+001;
2.243562072410370E+008;-4.056411682318564E+001;-7.733682961975281E+001;
2.329241139757013E+008;-4.057112690613697E+001;-1.224823006824137E+002;
2.418192192609057E+008;-4.056433373363272E+001;-1.701193061256679E+002;
2.510540184347519E+008;-4.056889530670906E+001;1.411578660143582E+002;
2.606414840180006E+008;-4.057180135184414E+001;9.032537365440973E+001;
2.705950839371309E+008;-4.062233483494732E+001;3.747013667705525E+001;
2.809288004433170E+008;-4.065482041071711E+001;-1.699307565669123E+001;
2.916571497539004E+008;-4.063346017608452E+001;-7.332442468334733E+001;
3.027952024439460E+008;-4.056120843196405E+001;-1.323703386851261E+002;
3.143586046165293E+008;-4.061688111697001E+001;1.664513576045944E+002;
3.263635998814921E+008;-4.061203624115255E+001;1.032673401971835E+002;
3.388270521735421E+008;-4.063621618137621E+001;3.747279170001771E+001;
3.517664694417494E+008;-4.061501282815638E+001;-3.090374470903814E+001;
3.652000282437178E+008;-4.065486418076859E+001;-1.015364306992095E+002;
3.791465992789793E+008;-4.067410106131943E+001;-1.749321662244032E+002;
3.936257738974798E+008;-4.064795272214532E+001;1.088707337020425E+002;
4.086578916203936E+008;-4.065752205798805E+001;2.987947274771451E+001;
4.242640687119258E+008;-4.065946970374460E+001;-5.232855804629764E+001;
4.404662278422399E+008;-4.069083411042953E+001;-1.378777151304867E+002;
4.572871288831783E+008;-4.071082416794801E+001;1.336940865431385E+002;
4.747504008800356E+008;-4.069588576843005E+001;4.211677899979193E+001;
4.928805752442984E+008;-4.067925134701572E+001;-5.316772519023619E+001;
5.117031202139767E+008;-4.070459590057955E+001;-1.524967929515467E+002;
5.312444766299368E+008;-4.070449900497759E+001;1.047286527946988E+002;
5.515320950784909E+008;-4.072956611670941E+001;-1.872259217915977E+000;
5.725944744524199E+008;-4.076249916959008E+001;-1.123023600740892E+002;
5.944612019845973E+008;-4.071636654083483E+001;1.324199462012101E+002;
6.171629948104519E+008;-4.073484113115295E+001;1.272843941911871E+001;
6.407317431176524E+008;-4.080648012531094E+001;-1.111080630573360E+002;
6.652005549436301E+008;-4.075153434462659E+001;1.209783031557978E+002;
6.906038026838671E+008;-4.076657386397999E+001;-1.310004063102354E+001;
7.169771713762831E+008;-4.074661336619513E+001;-1.515651690398213E+002;
7.443577088295471E+008;-4.086717395672437E+001;6.428966320644672E+001;
7.727838776657330E+008;-4.081986474709870E+001;-8.542538847805616E+001;
8.022956093504235E+008;-4.083596151223966E+001;1.193391744620950E+002;
8.329343602861624E+008;-4.085189365147996E+001;-4.229847568141768E+001;
8.647431700480518E+008;-4.088176371958611E+001;1.506103037396096E+002;
8.977667218432996E+008;-4.094010303857885E+001;-2.327102531827219E+001;
9.320514052796482E+008;-4.099110033367276E+001;1.561916598646673E+002;
9.676453815308577E+008;-4.095559151564250E+001;-3.112110791773805E+001;
1.004598650990784E+009;-4.093438103285089E+001;1.341557494151307E+002;
1.042963123511089E+009;-4.097603401273143E+001;-6.755991216888396E+001;
1.082792691321250E+009;-4.102347268836832E+001;8.224690893225517E+001;
1.124143304733295E+009;-4.106878103791171E+001;-1.358395113625630E+002;
1.167073050737623E+009;-4.100048406261333E+001;-2.497130869755325E+000;
1.211642234600307E+009;-4.089775941173225E+001;1.209231877045369E+002;
1.257913464576497E+009;-4.080796005406931E+001;-1.248901053439852E+002;
1.305951739858941E+009;-4.058168424538712E+001;-2.330577552222149E+001;
1.355824541885154E+009;-4.288028387182985E+001;6.376251146019764E+001;
1.407601929131501E+009;-4.263027841359069E+001;1.595825804755199E+002;
1.461356635527369E+009;-4.273879025287710E+001;-1.318099090156932E+002;
1.517164172627645E+009;-4.604897240068078E+001;-8.712130298869552E+001;
1.575102935687062E+009;-5.526378119756852E+001;1.008751450827875E+002;
1.635254313785392E+009;-4.178455475038669E+001;1.054482984986932E+002;
1.697702804158197E+009;-4.000998567335996E+001;1.109839333050512E+002;
1.762536130893741E+009;-4.152904536633744E+001;1.098033608680802E+002;
1.829845368162803E+009;-4.285665432808449E+001;1.506452394767284E+002;
1.899725068154491E+009;-3.808806967572006E+001;1.278701562884224E+002;
1.972273393897780E+009;-3.810680112749474E+001;1.072704337700029E+002;
2.047592257155356E+009;-3.634602438702164E+001;6.685177501910998E+001;
2.125787461583465E+009;-3.474126965984056E+001;1.081018300767941E+001;
2.206968851358869E+009;-3.329591509236270E+001;-6.198485076748451E+001;
2.291250465481706E+009;-3.169603266638322E+001;-1.535709251588627E+002;
2.378750697970985E+009;-3.007032296428581E+001;9.525175715669012E+001;
2.469592464177779E+009;-2.856795042872731E+001;-3.756008740305855E+001;
2.563903373449715E+009;-2.781766990432345E+001;1.664448532284029E+002;
2.661815908389335E+009;-2.784702877035188E+001;-4.624707972984727E+000;
2.763467610958116E+009;-2.798461451925802E+001;1.668998397223130E+002;
2.869001275687604E+009;-2.812423623628999E+001;-3.954874999748633E+001;
2.978565150269043E+009;-2.807916441442686E+001;9.191014000890347E+001;
3.092313143803313E+009;-2.486582101091823E+001;-1.546255481668746E+002;
3.210405043003673E+009;-2.556954011176487E+001;-1.098989111178051E+002;
3.333006736655056E+009;-2.871360320478668E+001;-6.470142906416209E+001;
3.460290448645197E+009;-3.159733385034095E+001;-4.486305361320086E+001;
3.592434979894962E+009;-3.731210210080619E+001;-5.959772604777366E+001;
3.729625959527711E+009;-4.289905818004640E+001;-6.689685765391981E+001;
3.872056105630537E+009;-4.474319407130516E+001;-1.103734513818126E+002;
4.019925495973672E+009;-4.406771028007402E+001;1.576845731259734E+002;
4.173441849068368E+009;-4.428645793570099E+001;2.878289261754063E+001;
4.332820815958047E+009;-3.764890836598433E+001;-1.077729292738050E+002;
4.498286283152621E+009;-4.306480559770400E+001;-1.512154838197073E+002;
4.670070687131537E+009;-4.509017274013682E+001;-1.437294715679828E+002;
4.848415340857322E+009;-5.374731209480370E+001;-5.786629627583981E+001;
5.033570772758309E+009;-4.206765008891983E+001;-1.246747518082525E+002;
5.225797078656734E+009;-4.676419899159198E+001;-9.248839641838740E+001;
5.425364287136548E+009;-3.635957913166286E+001;2.116904727146575E+000;
5.632552738864227E+009;-3.372213375592636E+001;-6.780509151670425E+001;
5.847653480395394E+009;-3.232876546180611E+001;-1.646427741840398E+002;
6.070968673020469E+009;-3.420275838359703E+001;9.813154833003451E+001;
6.302812017223670E+009;-3.038443542782716E+001;-7.376584368336816E+001;
6.543509193351618E+009;-3.780578680659332E+001;8.709383075261708E+001;
6.793398319110564E+009;-4.488234785510848E+001;1.158336311923616E+002;
7.052830424534919E+009;-4.001654855713029E+001;-2.042209221868570E+001;
7.322169945094285E+009;-4.434481999337024E+001;-4.259368461191476E+001;
7.601795233631680E+009;-4.767265193183518E+001;-1.768066588571220E+002;
7.892099091852097E+009;-6.053292168668742E+001;-4.165531526297011E+001;
8.193489322108005E+009;-4.009534924724670E+001;1.493021202624177E+002;
8.506389300256902E+009;-3.676401456380397E+001;1.786261756482121E+002;
8.831238570395649E+009;-4.444763721712849E+001;1.735331683289064E+002;
9.168493462307018E+009;-4.596811319750538E+001;-1.224523264214228E+002;
9.518627732485830E+009;-4.300180180607002E+001;-1.682188803553685E+002;
9.882133229645132E+009;-3.459386217641235E+001;1.278158379180946E+002;
1.025952058563731E+010;-3.117452662922982E+001;5.861645195759383E+001;
1.065131993276066E+010;-2.741733201587318E+001;-6.177307418463395E+001;
1.105808164845913E+010;-3.888116781584979E+001;-1.040008733179557E+001;
1.148037712846121E+010;-3.665822692033906E+001;-6.743895364465645E+001;
1.191879958944423E+010;-3.918938275198393E+001;-1.177905895989866E+002;
1.237396490235132E+010;-3.258218001856911E+001;4.944353432175387E+001;
1.284651245753197E+010;-4.884745737256170E+001;-1.375103480409598E+002;
1.333710606292122E+010;-3.190897923851617E+001;1.562797934734324E+002;
1.384643487651927E+010;-2.779311313158424E+001;-9.300100494553013E+001;
1.437521437448148E+010;-3.258506281158016E+001;1.161061490541420E+002;
1.492418735617858E+010;-3.216175836054099E+001;-8.591474894034443E+000;
1.549412498763898E+010;-3.175994749235804E+001;9.591892532675810E+001;
1.608582788483898E+010;-3.161108220447968E+001;-1.354033699424627E+002;
1.670012723836252E+010;-3.570501837744839E+001;1.169779700330212E+002;
1.733788598101053E+010;-3.855610926903609E+001;2.240458967022179E+001;
1.800000000000000E+010;-3.218012702816901E+001;9.510266723788865E+001;
