# Version 1.00
#
freq[Hz];db:Trc1_S21;ang:Trc1_S21;
1.000000000000000E+007;-2.653745214034398E-001;-3.455172157444853E+001;
1.038188855303029E+007;1.126348371297258E-001;-3.675477728432760E+001;
1.077836099275414E+007;-1.115766840519434E-001;-3.644683601494833E+001;
1.118997426111024E+007;-1.156339460124414E-001;-4.020100534526414E+001;
1.161730656901240E+007;-4.720284362203126E-001;-4.087000492865460E+001;
1.206095820858735E+007;-3.356210025317136E-001;-4.157743470199520E+001;
1.252155239643097E+007;-4.989288154152739E-001;-4.290731151631471E+001;
1.299973614906757E+007;7.088120313756945E-002;-4.313514555753056E+001;
1.349618119184187E+007;5.354553430198391E-002;-4.698050127587704E+001;
1.401158490252058E+007;-4.837339459416269E-001;-4.893304148325059E+001;
1.454667129092905E+007;1.590563452581617E-001;-4.876039994202583E+001;
1.510219201599907E+007;2.117516439388620E-001;-5.265579653101085E+001;
1.567892744165662E+007;1.469870616464902E-001;-5.363538009337231E+001;
1.627768773303274E+007;-9.874702862568556E-002;-5.469039238176972E+001;
1.689931399453742E+007;9.570905001623117E-002;-5.582973854830503E+001;
1.754467945139527E+007;6.106549614460842E-002;-5.927093072542228E+001;
1.821469067630263E+007;1.311714696292716E-001;-6.155486694406451E+001;
1.891028886292939E+007;1.666703110569061E-002;-6.450566674527117E+001;
1.963245114805428E+007;-1.801024653190811E-001;-6.525626286608650E+001;
2.038219198419111E+007;2.217543432150009E-003;-6.895525049011006E+001;
2.116056456463395E+007;-1.158790793598461E-001;-7.114218401134903E+001;
2.196866230292316E+007;-1.730340917834966E-002;-7.556911367903099E+001;
2.280762036881060E+007;-3.140603588796336E-001;-7.663643379591596E+001;
2.367861728288153E+007;-2.090253245617611E-001;-8.061236393785123E+001;
2.458287657207330E+007;-1.043181577523945E-001;-8.324681961035461E+001;
2.552166848841643E+007;1.048836445799876E-001;-8.650434644902553E+001;
2.649631179341245E+007;-1.195315674584273E-001;-9.033894410897314E+001;
2.750817561055502E+007;-1.162528544608977E-001;-9.186317156411843E+001;
2.855868134859682E+007;4.397803790308307E-003;-9.741750056932115E+001;
2.964930469826371E+007;-3.815310926183888E-001;-1.008734349396760E+002;
3.078157770522112E+007;-2.442200502034962E-001;-1.036545756088136E+002;
3.195709092220476E+007;-9.379277538716667E-003;-1.082122668278236E+002;
3.317749564333858E+007;-1.038864503448327E-001;-1.126601851060785E+002;
3.444450622377892E+007;-4.466423985340985E-002;-1.158465361474538E+002;
3.575990248794310E+007;-2.095800740687449E-003;-1.193872060598994E+002;
3.712553222970559E+007;-2.047967485594753E-001;-1.249359034054179E+002;
3.854331380807376E+007;1.416684966336307E-002;-1.304140223343724E+002;
4.001523884198953E+007;-1.216843726983853E-001;-1.350290328789161E+002;
4.154337500804243E+007;-1.713631672975170E-001;-1.408004401243506E+002;
4.312986894502404E+007;-1.468208978831765E-001;-1.449717989921797E+002;
4.477694926940417E+007;-1.494667030728690E-001;-1.500732044170955E+002;
4.648692970596453E+007;-6.968857749862145E-002;-1.565965129318839E+002;
4.826221233798770E+007;-2.465624288377565E-001;-1.625777971548577E+002;
5.010529098156718E+007;-2.457888425194223E-001;-1.683330692164404E+002;
5.201875468877842E+007;-1.427660876427939E-002;-1.749707669686970E+002;
5.400529138463195E+007;-9.030821493152297E-002;1.785249301151823E+002;
5.606769164291760E+007;-1.417808968676720E-001;1.709667795846894E+002;
5.820885260624383E+007;-1.747976928055353E-001;1.637022436251059E+002;
6.043178205577903E+007;-1.610589684488175E-001;1.567518119476962E+002;
6.273960263641138E+007;-1.989784836061292E-001;1.491446837681808E+002;
6.513555624326284E+007;-9.047013486326028E-002;1.409146505327403E+002;
6.762300857571912E+007;-1.551304754984593E-001;1.327453645278239E+002;
7.020545386537276E+007;-1.498479330174368E-001;1.240172450423762E+002;
7.288651978452097E+007;-1.296833737911680E-001;1.154429458572040E+002;
7.566997254211341E+007;-2.025160279508478E-001;1.054581330522980E+002;
7.855972217430838E+007;-1.412689188764508E-001;9.623384344981686E+001;
8.155982803706922E+007;-1.958981410388752E-001;8.569941166242585E+001;
8.467450450851679E+007;-1.382416279895340E-001;7.532101871047352E+001;
8.790812690904823E+007;-1.828252525972832E-001;6.450165779335706E+001;
9.126523764753820E+007;-1.972698755329949E-001;5.346498562555716E+001;
9.475055260225661E+007;-1.809762691752795E-001;4.193037023607508E+001;
9.836896774546625E+007;-2.091327788953409E-001;2.978785459524707E+001;
1.021255660210062E+008;-2.211296529651505E-001;1.716599484925406E+001;
1.060256244845224E+008;-2.260331981215163E-001;4.302920692723638E+000;
1.100746217163751E+008;-2.322640205104594E-001;-9.405459595123297E+000;
1.142782455176374E+008;-2.280382474333228E-001;-2.359529900909250E+001;
1.186424008999945E+008;-2.777104413571596E-001;-3.814630623101382E+001;
1.231732183807684E+008;-2.305323857980303E-001;-5.310653348384609E+001;
1.278770625947199E+008;-2.554025216760590E-001;-6.893708152495820E+001;
1.327605412347261E+008;-2.005220931552130E-001;-8.545450531574774E+001;
1.378305143338909E+008;-2.175450133335327E-001;-1.023695484702907E+002;
1.430941039021300E+008;-2.644986284314794E-001;-1.200215250891768E+002;
1.485587039307650E+008;-2.606171571489433E-001;-1.383002778129497E+002;
1.542319907791826E+008;-2.335203581370195E-001;-1.571770923407950E+002;
1.601219339581469E+008;-2.565860281540931E-001;-1.769727197597238E+002;
1.662368073249158E+008;-2.852843128033524E-001;1.626481836506188E+002;
1.725852007058845E+008;-2.789943050792884E-001;1.411394665295499E+002;
1.791760319630858E+008;-2.972015690655676E-001;1.192274106623026E+002;
1.860185595214950E+008;-3.084285688417310E-001;9.621555285792361E+001;
1.931223953747393E+008;-3.223985553975162E-001;7.247704323790003E+001;
2.004975185874796E+008;-2.984048207424807E-001;4.796411091070032E+001;
2.081542893134333E+008;-2.841815113971637E-001;2.214647160357856E+001;
2.161034633487289E+008;-3.218528197005113E-001;-4.234394731899540E+000;
2.243562072410370E+008;-3.467820809427388E-001;-3.193056906513584E+001;
2.329241139757013E+008;-3.328463729144952E-001;-6.048608528161098E+001;
2.418192192609057E+008;-3.526704946883963E-001;-9.039328834000605E+001;
2.510540184347519E+008;-3.522443547142354E-001;-1.212237109358111E+002;
2.606414840180006E+008;-3.618755248701063E-001;-1.531606893891919E+002;
2.705950839371309E+008;-3.574003514874334E-001;1.735153296070768E+002;
2.809288004433170E+008;-3.740715684961894E-001;1.388927844906221E+002;
2.916571497539004E+008;-3.778271374055827E-001;1.030475665656026E+002;
3.027952024439460E+008;-3.753803094340708E-001;6.568868719548451E+001;
3.143586046165293E+008;-3.985091806443335E-001;2.712654480237662E+001;
3.263635998814921E+008;-4.027989942714182E-001;-1.308402533889126E+001;
3.388270521735421E+008;-4.176619857165684E-001;-5.473447364460927E+001;
3.517664694417494E+008;-4.325334327517462E-001;-9.802878060605190E+001;
3.652000282437178E+008;-4.346001447490347E-001;-1.429006114203242E+002;
3.791465992789793E+008;-4.310485015810507E-001;1.703852064549391E+002;
3.936257738974798E+008;-4.450026302894996E-001;1.219902804107486E+002;
4.086578916203936E+008;-4.489066699643419E-001;7.171417686931549E+001;
4.242640687119258E+008;-4.679544933890104E-001;1.949659631414336E+001;
4.404662278422399E+008;-4.789936762794774E-001;-3.478723543901968E+001;
4.572871288831783E+008;-4.923657805098766E-001;-9.098318214169709E+001;
4.747504008800356E+008;-5.004824093365473E-001;-1.492989864106005E+002;
4.928805752442984E+008;-5.050893437289775E-001;1.501179884811492E+002;
5.117031202139767E+008;-5.212333851502613E-001;8.702117970274671E+001;
5.312444766299368E+008;-5.262023283372105E-001;2.164967416959492E+001;
5.515320950784909E+008;-5.399339232758521E-001;-4.616931110913651E+001;
5.725944744524199E+008;-5.531931998467410E-001;-1.165570886233980E+002;
5.944612019845973E+008;-5.616398337759795E-001;1.703178747971030E+002;
6.171629948104519E+008;-5.647447037772896E-001;9.433222852230691E+001;
6.407317431176524E+008;-5.922922134615508E-001;1.559380365640389E+001;
6.652005549436301E+008;-5.970194271221073E-001;-6.616071975482295E+001;
6.906038026838671E+008;-6.057772076909340E-001;-1.510543582528350E+002;
7.169771713762831E+008;-6.227538104177145E-001;1.207833336722065E+002;
7.443577088295471E+008;-6.350297467268106E-001;2.927728782908543E+001;
7.727838776657330E+008;-6.455489571449232E-001;-6.577985679094971E+001;
8.022956093504235E+008;-6.493613997040748E-001;-1.645086969625034E+002;
8.329343602861624E+008;-6.694212620153194E-001;9.300891875327419E+001;
8.647431700480518E+008;-6.893981603908789E-001;-1.328195759724770E+001;
8.977667218432996E+008;-6.959987262153922E-001;-1.236944091990693E+002;
9.320514052796482E+008;-7.123604974307196E-001;1.218082351427915E+002;
9.676453815308577E+008;-7.236884992952075E-001;2.783179172698549E+000;
1.004598650990784E+009;-7.409885621972482E-001;-1.207961383623220E+002;
1.042963123511089E+009;-7.563860294334551E-001;1.109775005657935E+002;
1.082792691321250E+009;-7.696564647759415E-001;-2.212996793060561E+001;
1.124143304733295E+009;-7.861177375427384E-001;-1.603922241662872E+002;
1.167073050737623E+009;-7.994787447591067E-001;5.619028815539180E+001;
1.211642234600307E+009;-8.135544679929109E-001;-9.275974085863240E+001;
1.257913464576497E+009;-8.309147761799757E-001;1.125711068539605E+002;
1.305951739858941E+009;-8.425888315967871E-001;-4.799104663987463E+001;
1.355824541885154E+009;-8.674690534430611E-001;1.452923309777001E+002;
1.407601929131501E+009;-8.799782083474838E-001;-2.780453463329119E+001;
1.461356635527369E+009;-8.974905591376762E-001;1.525551880325989E+002;
1.517164172627645E+009;-9.170477817753173E-001;-3.394700455647151E+001;
1.575102935687062E+009;-9.393491874463729E-001;1.324388679593515E+002;
1.635254313785392E+009;-9.478351338210288E-001;-6.858458655447068E+001;
1.697702804158197E+009;-9.761808774821423E-001;8.273797995795970E+001;
1.762536130893741E+009;-9.900371267890888E-001;-1.340452870818589E+002;
1.829845368162803E+009;-1.017155124469692E+000;8.609451107992605E-001;
1.899725068154491E+009;-1.028764704722208E+000;1.271412003216971E+002;
1.972273393897780E+009;-1.053859482578182E+000;-1.151098884361323E+002;
2.047592257155356E+009;-1.067899954899823E+000;-6.889330669415865E+000;
2.125787461583465E+009;-1.090681176925087E+000;9.188277426318740E+001;
2.206968851358869E+009;-1.120294311903452E+000;-1.795295099611261E+002;
2.291250465481706E+009;-1.136811642791843E+000;-1.011630087806874E+002;
2.378750697970985E+009;-1.157754387002857E+000;-3.353725972785203E+001;
2.469592464177779E+009;-1.179970321166762E+000;2.280807989079634E+001;
2.563903373449715E+009;-1.203086340699729E+000;6.762791108001815E+001;
2.661815908389335E+009;-1.230581086965496E+000;1.002738120919139E+002;
2.763467610958116E+009;-1.261113006818082E+000;1.207382885106443E+002;
2.869001275687604E+009;-1.278875503758667E+000;1.281221409626393E+002;
2.978565150269043E+009;-1.300713845563827E+000;1.220247855639695E+002;
3.092313143803313E+009;-1.339863977988874E+000;1.017398100720854E+002;
3.210405043003673E+009;-1.366007606735759E+000;6.716124101319082E+001;
3.333006736655056E+009;-1.395671983019880E+000;1.757819908757542E+001;
3.460290448645197E+009;-1.414394130020501E+000;-4.793228114962168E+001;
3.592434979894962E+009;-1.434139451536391E+000;-1.294709842143910E+002;
3.729625959527711E+009;-1.468271470687328E+000;1.321799282277202E+002;
3.872056105630537E+009;-1.505877006755106E+000;1.616262681933901E+001;
4.019925495973672E+009;-1.538866853658558E+000;-1.177193966559370E+002;
4.173441849068368E+009;-1.569837920635573E+000;8.941721783288809E+001;
4.332820815958047E+009;-1.599232739647669E+000;-8.321505972105636E+001;
4.498286283152621E+009;-1.638333479955381E+000;8.389269520180366E+001;
4.670070687131537E+009;-1.687110896182327E+000;-1.299739351937951E+002;
4.848415340857322E+009;-1.715100314082014E+000;-5.775324237156656E+000;
5.033570772758309E+009;-1.746904950958001E+000;9.542494786348017E+001;
5.225797078656734E+009;-1.810020341006472E+000;1.734945910208220E+002;
5.425364287136548E+009;-1.822403407964484E+000;-1.337524311820541E+002;
5.632552738864227E+009;-1.884859217250928E+000;-1.062862652164834E+002;
5.847653480395394E+009;-1.900559972878861E+000;-1.049500686226145E+002;
6.070968673020469E+009;-1.966738252294538E+000;-1.308781546314773E+002;
6.302812017223670E+009;-1.984908849739889E+000;1.743410506957593E+002;
6.543509193351618E+009;-2.018727161705840E+000;9.023636782968441E+001;
6.793398319110564E+009;-2.084177806708840E+000;-2.472480098403896E+001;
7.052830424534919E+009;-2.115757710408174E+000;-1.716058522847793E+002;
7.322169945094285E+009;-2.182175213389639E+000;8.571740784313345E+000;
7.601795233631680E+009;-2.162242980805418E+000;1.541015013813750E+002;
7.892099091852097E+009;-2.235785106897732E+000;-9.589079922394750E+001;
8.193489322108005E+009;-2.232055546193022E+000;-2.300286067580498E+001;
8.506389300256902E+009;-2.288465225080267E+000;1.160573915849641E+001;
8.831238570395649E+009;-2.330740104070730E+000;6.135605578645526E+000;
9.168493462307018E+009;-2.376784818834440E+000;-4.070628092856475E+001;
9.518627732485830E+009;-2.459680331104539E+000;-1.305298757711373E+002;
9.882133229645132E+009;-2.500195108644951E+000;9.502664575220636E+001;
1.025952058563731E+010;-2.546250490968542E+000;-8.591714755803845E+001;
1.065131993276066E+010;-2.630696168956840E+000;4.473150037804003E+001;
1.105808164845913E+010;-2.753910075187783E+000;1.255574092433104E+002;
1.148037712846121E+010;-2.781408020002720E+000;1.539161041852863E+002;
1.191879958944423E+010;-2.808589941297359E+000;1.288006942881696E+002;
1.237396490235132E+010;-2.880860088044938E+000;4.777308058817039E+001;
1.284651245753197E+010;-2.996327721437346E+000;-9.086840627873865E+001;
1.333710606292122E+010;-3.007455175926278E+000;6.972036073628770E+001;
1.384643487651927E+010;-3.085900504207236E+000;1.674244805083615E+002;
1.437521437448148E+010;-3.127879112521601E+000;-1.598234047450129E+002;
1.492418735617858E+010;-3.202865092267399E+000;1.661181577135455E+002;
1.549412498763898E+010;-3.317148694108908E+000;6.119089383458542E+001;
1.608582788483898E+010;-3.247764829125799E+000;-1.167450790926505E+002;
1.670012723836252E+010;-3.398681066089325E+000;-1.050978100931503E+001;
1.733788598101053E+010;-3.573431850549576E+000;1.872115560290035E+001;
1.800000000000000E+010;-3.798394248241539E+000;-3.464226101073218E+001;
