# Version 1.00
#
freq[Hz];db:Trc1_S21;ang:Trc1_S21;
1.000000000000000E+007;-2.006860971608038E+001;-7.462622089633335E+001;
1.038188855303029E+007;-1.999141815555825E+001;-7.676971880077529E+001;
1.077836099275414E+007;-2.029393206529390E+001;-8.076083339503272E+001;
1.118997426111024E+007;-2.027696576854540E+001;-8.097591316994733E+001;
1.161730656901240E+007;-2.060494415145906E+001;-8.415852323695262E+001;
1.206095820858735E+007;-2.043522962602789E+001;-8.789105296949818E+001;
1.252155239643097E+007;-2.007087237706143E+001;-9.291092869595768E+001;
1.299973614906757E+007;-2.020987770673012E+001;-9.865506072570875E+001;
1.349618119184187E+007;-2.004609065648096E+001;-1.005171692938035E+002;
1.401158490252058E+007;-2.037630460416272E+001;-1.027674367871842E+002;
1.454667129092905E+007;-2.030336882779509E+001;-1.055808487365210E+002;
1.510219201599907E+007;-2.046391073178587E+001;-1.115074341807674E+002;
1.567892744165662E+007;-2.058903080758125E+001;-1.162121147692996E+002;
1.627768773303274E+007;-2.037179185654402E+001;-1.165657032701142E+002;
1.689931399453742E+007;-2.037152789637928E+001;-1.227589859113643E+002;
1.754467945139527E+007;-2.031304385404184E+001;-1.303068935663791E+002;
1.821469067630263E+007;-2.032207411252091E+001;-1.315526115816211E+002;
1.891028886292939E+007;-2.049325732169301E+001;-1.378622829822248E+002;
1.963245114805428E+007;-2.042450393361676E+001;-1.438135811678090E+002;
2.038219198419111E+007;-2.027267572861426E+001;-1.508845221282001E+002;
2.116056456463395E+007;-2.036984143148635E+001;-1.550593220126478E+002;
2.196866230292316E+007;-2.016392692607102E+001;-1.611511434434468E+002;
2.280762036881060E+007;-2.067721068493632E+001;-1.684474878832025E+002;
2.367861728288153E+007;-2.030701374202732E+001;-1.730423563931172E+002;
2.458287657207330E+007;-2.036437437619123E+001;-1.795438448082263E+002;
2.552166848841643E+007;-2.050793614563401E+001;1.722431694419200E+002;
2.649631179341245E+007;-2.048558679825405E+001;1.667701390881602E+002;
2.750817561055502E+007;-2.044519504644428E+001;1.590251296670353E+002;
2.855868134859682E+007;-2.034469185892241E+001;1.505690619032342E+002;
2.964930469826371E+007;-2.051357886589821E+001;1.426659592768332E+002;
3.078157770522112E+007;-2.050221391065710E+001;1.340226220204480E+002;
3.195709092220476E+007;-2.051671861012443E+001;1.271189621816503E+002;
3.317749564333858E+007;-2.052652756534868E+001;1.168754316331121E+002;
3.444450622377892E+007;-2.055390668429044E+001;1.078413151583396E+002;
3.575990248794310E+007;-2.051198695330853E+001;9.867065319888479E+001;
3.712553222970559E+007;-2.039178842195969E+001;8.830369182691209E+001;
3.854331380807376E+007;-2.046380069972814E+001;7.881709044554211E+001;
4.001523884198953E+007;-2.046708487392472E+001;6.828236956390570E+001;
4.154337500804243E+007;-2.034300970995536E+001;5.591366004852912E+001;
4.312986894502404E+007;-2.051854735484941E+001;4.565122452851515E+001;
4.477694926940417E+007;-2.058236896911802E+001;3.201685709888539E+001;
4.648692970596453E+007;-2.054655897400826E+001;2.018990742374425E+001;
4.826221233798770E+007;-2.058425128253572E+001;7.822904787504834E+000;
5.010529098156718E+007;-2.058770848388009E+001;-5.511096236859461E+000;
5.201875468877842E+007;-2.059602689755704E+001;-1.989247533521518E+001;
5.400529138463195E+007;-2.058464499076630E+001;-3.441121234979460E+001;
5.606769164291760E+007;-2.050957834296289E+001;-5.000397272330997E+001;
5.820885260624383E+007;-2.059536632758113E+001;-6.461654321062298E+001;
6.043178205577903E+007;-2.068523156029936E+001;-8.129596759412726E+001;
6.273960263641138E+007;-2.058114207763522E+001;-9.823100418913265E+001;
6.513555624326284E+007;-2.060927074502531E+001;-1.151532172878495E+002;
6.762300857571912E+007;-2.059692338289391E+001;-1.328588932004228E+002;
7.020545386537276E+007;-2.057329726715808E+001;-1.520974270371138E+002;
7.288651978452097E+007;-2.059713950432898E+001;-1.714524923186042E+002;
7.566997254211341E+007;-2.062342083697583E+001;1.684400638756229E+002;
7.855972217430838E+007;-2.065189854917974E+001;1.474537919918046E+002;
8.155982803706922E+007;-2.063710043633623E+001;1.252043454650854E+002;
8.467450450851679E+007;-2.063580522554157E+001;1.029169811272469E+002;
8.790812690904823E+007;-2.067117191195211E+001;7.962373409071414E+001;
9.126523764753820E+007;-2.072080904237554E+001;5.485322135759726E+001;
9.475055260225661E+007;-2.065857849954308E+001;2.971070965439591E+001;
9.836896774546625E+007;-2.069812964393088E+001;2.901513241907944E+000;
1.021255660210062E+008;-2.072438970773489E+001;-2.396647029964209E+001;
1.060256244845224E+008;-2.077173450534584E+001;-5.239483231956025E+001;
1.100746217163751E+008;-2.074498591048155E+001;-8.191392092856961E+001;
1.142782455176374E+008;-2.076808113983903E+001;-1.121660101365306E+002;
1.186424008999945E+008;-2.079282138716390E+001;-1.443296560214116E+002;
1.231732183807684E+008;-2.079371103468606E+001;-1.768665469199153E+002;
1.278770625947199E+008;-2.076526001809726E+001;1.486937548199106E+002;
1.327605412347261E+008;-2.079492711018421E+001;1.133284831448482E+002;
1.378305143338909E+008;-2.084530093937800E+001;7.664044652266355E+001;
1.430941039021300E+008;-2.087317537772428E+001;3.827292862005209E+001;
1.485587039307650E+008;-2.086067832818991E+001;-1.237442983732591E+000;
1.542319907791826E+008;-2.086604635331725E+001;-4.253564240985751E+001;
1.601219339581469E+008;-2.086606327120935E+001;-8.523848054184087E+001;
1.662368073249158E+008;-2.090927780094691E+001;-1.296917110461244E+002;
1.725852007058845E+008;-2.088131633942448E+001;-1.759384441487719E+002;
1.791760319630858E+008;-2.092048094534375E+001;1.362431206359652E+002;
1.860185595214950E+008;-2.093276775617595E+001;8.655899002215135E+001;
1.931223953747393E+008;-2.098229697272572E+001;3.513395054652195E+001;
2.004975185874796E+008;-2.098412397785769E+001;-1.847319817538881E+001;
2.081542893134333E+008;-2.097787158250311E+001;-7.405116646942327E+001;
2.161034633487289E+008;-2.100569273571036E+001;-1.317624535826614E+002;
2.243562072410370E+008;-2.100915046663709E+001;1.683377295009252E+002;
2.329241139757013E+008;-2.107134663516058E+001;1.061000615660790E+002;
2.418192192609057E+008;-2.106770710082684E+001;4.157532611156425E+001;
2.510540184347519E+008;-2.108649879367633E+001;-2.538754006974181E+001;
2.606414840180006E+008;-2.110366597205947E+001;-9.517638272581743E+001;
2.705950839371309E+008;-2.111560637720737E+001;-1.672530292599798E+002;
2.809288004433170E+008;-2.116912407043962E+001;1.176831763582767E+002;
2.916571497539004E+008;-2.116587795904630E+001;3.986466002101560E+001;
3.027952024439460E+008;-2.117331494838553E+001;-4.103600659608757E+001;
3.143586046165293E+008;-2.119398738983802E+001;-1.249805319009006E+002;
3.263635998814921E+008;-2.122849243432504E+001;1.478800249353220E+002;
3.388270521735421E+008;-2.122623009755811E+001;5.736469003634552E+001;
3.517664694417494E+008;-2.126497069719342E+001;-3.647623653109281E+001;
3.652000282437178E+008;-2.129336148889948E+001;-1.339399001395894E+002;
3.791465992789793E+008;-2.131182998793871E+001;1.249195175747987E+002;
3.936257738974798E+008;-2.134912533193645E+001;1.982477821958693E+001;
4.086578916203936E+008;-2.135278857672955E+001;-8.913639371312208E+001;
4.242640687119258E+008;-2.137771610454398E+001;1.576096373799975E+002;
4.404662278422399E+008;-2.139824900754623E+001;3.991345577893610E+001;
4.572871288831783E+008;-2.143091589431296E+001;-8.214097550787307E+001;
4.747504008800356E+008;-2.147241066473242E+001;1.512152154228483E+002;
4.928805752442984E+008;-2.147328903431257E+001;1.972081987993251E+001;
5.117031202139767E+008;-2.150711394054604E+001;-1.168670838302101E+002;
5.312444766299368E+008;-2.153614449406623E+001;1.012502357116456E+002;
5.515320950784909E+008;-2.159580076498002E+001;-4.586365113855430E+001;
5.725944744524199E+008;-2.159084313416073E+001;1.615007050267219E+002;
5.944612019845973E+008;-2.162553115043010E+001;2.889492249214568E+000;
6.171629948104519E+008;-2.163970469946842E+001;-1.620320258672574E+002;
6.407317431176524E+008;-2.170461163314566E+001;2.722530991747673E+001;
6.652005549436301E+008;-2.171439975343071E+001;-1.502544791577135E+002;
6.906038026838671E+008;-2.172292522459751E+001;2.537736573958874E+001;
7.169771713762831E+008;-2.178491390864735E+001;-1.658952121611067E+002;
7.443577088295471E+008;-2.182133898461233E+001;-4.394155346944738E+000;
7.727838776657330E+008;-2.180993319944272E+001;1.493127826096859E+002;
8.022956093504235E+008;-2.187978426210173E+001;-6.473476770524628E+001;
8.329343602861624E+008;-2.191929989577909E+001;7.310480712863000E+001;
8.647431700480518E+008;-2.192827570879567E+001;-1.577923923535833E+002;
8.977667218432996E+008;-2.200755632040708E+001;-3.726340209233597E+001;
9.320514052796482E+008;-2.198983920846736E+001;7.433861653890234E+001;
9.676453815308577E+008;-2.205941585781199E+001;1.758451795701886E+002;
1.004598650990784E+009;-2.211454692247708E+001;-9.140453654891246E+001;
1.042963123511089E+009;-2.209708672693739E+001;-1.025267020219263E+001;
1.082792691321250E+009;-2.220404812209792E+001;6.143925866354147E+001;
1.124143304733295E+009;-2.217225890228769E+001;1.210867842628254E+002;
1.167073050737623E+009;-2.229007106974170E+001;1.702601038962482E+002;
1.211642234600307E+009;-2.226272932074343E+001;-1.533953166160927E+002;
1.257913464576497E+009;-2.236205729998516E+001;-1.285396234498136E+002;
1.305951739858941E+009;-2.241572815022607E+001;-1.172855316434560E+002;
1.355824541885154E+009;-2.243102008012223E+001;-1.181193271708421E+002;
1.407601929131501E+009;-2.249664309441650E+001;-1.341824413081456E+002;
1.461356635527369E+009;-2.249141187252343E+001;-1.639680959756166E+002;
1.517164172627645E+009;-2.259788314067924E+001;1.521632602142583E+002;
1.575102935687062E+009;-2.266380675182130E+001;9.110724523319306E+001;
1.635254313785392E+009;-2.260550237864730E+001;1.526542687418879E+001;
1.697702804158197E+009;-2.267698345924658E+001;-7.696475438792818E+001;
1.762536130893741E+009;-2.280133538998097E+001;1.727213985594629E+002;
1.829845368162803E+009;-2.284810575862925E+001;4.418075320760163E+001;
1.899725068154491E+009;-2.282176405608604E+001;-1.028509010342090E+002;
1.972273393897780E+009;-2.283690011026765E+001;9.173996366123019E+001;
2.047592257155356E+009;-2.290130922660395E+001;-9.405267982217551E+001;
2.125787461583465E+009;-2.300525108521249E+001;5.923963094117256E+001;
2.206968851358869E+009;-2.309579352180562E+001;-1.694242320588662E+002;
2.291250465481706E+009;-2.317557841607005E+001;-6.049140727865584E+001;
2.378750697970985E+009;-2.326793826040562E+001;2.520915399893599E+001;
2.469592464177779E+009;-2.328629811982715E+001;8.662360608025747E+001;
2.563903373449715E+009;-2.327171116906196E+001;1.245703685658519E+002;
2.661815908389335E+009;-2.328614748669866E+001;1.318137119429752E+002;
2.763467610958116E+009;-2.351792286770522E+001;1.140616977091298E+002;
2.869001275687604E+009;-2.376440759535713E+001;6.984270519548436E+001;
2.978565150269043E+009;-2.384512656609340E+001;-2.219280710759215E+000;
3.092313143803313E+009;-2.361317535455013E+001;-1.095022073349707E+002;
3.210405043003673E+009;-2.406199408070483E+001;1.150442297450135E+002;
3.333006736655056E+009;-2.398126151958744E+001;-5.102234188836679E+001;
3.460290448645197E+009;-2.425899095103566E+001;1.026282560359410E+002;
3.592434979894962E+009;-2.402300352760992E+001;-1.310414529875346E+002;
3.729625959527711E+009;-2.479122703958575E+001;-4.704122031270405E+001;
3.872056105630537E+009;-2.438726394096165E+001;-2.182553400136176E+000;
4.019925495973672E+009;-2.414419486827128E+001;9.208799920219370E+000;
4.173441849068368E+009;-2.446770724401181E+001;-2.172956493095068E+001;
4.332820815958047E+009;-2.477290412314148E+001;-9.734594151047210E+001;
4.498286283152621E+009;-2.498560139751866E+001;1.421209567666356E+002;
4.670070687131537E+009;-2.528353305538407E+001;-2.353367617798184E+001;
4.848415340857322E+009;-2.531674180765897E+001;1.249338221253554E+002;
5.033570772758309E+009;-2.529401825119381E+001;-1.365247297825058E+002;
5.225797078656734E+009;-2.496013325113114E+001;-9.104276476192780E+001;
5.425364287136548E+009;-2.559804179043523E+001;-1.000457534840048E+002;
5.632552738864227E+009;-2.579811438332252E+001;-1.563581445910044E+002;
5.847653480395394E+009;-2.529620850845990E+001;8.211473286544072E+001;
6.070968673020469E+009;-2.527320881408107E+001;-9.314580165669217E+001;
6.302812017223670E+009;-2.578767446231368E+001;2.433583344462301E+001;
6.543509193351618E+009;-2.576379192724711E+001;7.805578425296628E+001;
6.793398319110564E+009;-2.535903092270842E+001;6.722765357957790E+001;
7.052830424534919E+009;-2.566539820288134E+001;-1.536820083990360E+001;
7.322169945094285E+009;-2.598304916909774E+001;-1.659950100908478E+002;
7.601795233631680E+009;-2.596713889214559E+001;-3.150573851499301E+001;
7.892099091852097E+009;-2.569606288948973E+001;2.441244983244063E+001;
8.193489322108005E+009;-2.644154720617971E+001;-1.000503614530595E+000;
8.506389300256902E+009;-2.596891799853263E+001;-1.092002075497158E+002;
8.831238570395649E+009;-2.588213589382504E+001;5.891594066977891E+001;
9.168493462307018E+009;-2.605373862191071E+001;1.324438176923730E+002;
9.518627732485830E+009;-2.609332662308504E+001;1.101027245241899E+002;
9.882133229645132E+009;-2.636513498584850E+001;-5.226268789654184E+000;
1.025952058563731E+010;-2.635589341171801E+001;1.407752479526754E+002;
1.065131993276066E+010;-2.676579437237919E+001;1.774193445634471E+002;
1.105808164845913E+010;-2.642297971492738E+001;1.084092023048538E+002;
1.148037712846121E+010;-2.660636260207408E+001;-7.159832139328896E+001;
1.191879958944423E+010;-2.690539063881600E+001;-1.266489197709906E+001;
1.237396490235132E+010;-2.706649376505269E+001;-7.137543182721656E+001;
1.284651245753197E+010;-2.747667161200111E+001;1.004314557045963E+002;
1.333710606292122E+010;-2.749652350862558E+001;1.432918439260171E+002;
1.384643487651927E+010;-2.742316622423009E+001;5.111738886913229E+001;
1.437521437448148E+010;-2.748396652741934E+001;1.720760487132999E+002;
1.492418735617858E+010;-2.762092024097635E+001;1.531188492479948E+002;
1.549412498763898E+010;-2.804941488180142E+001;-2.962895638903747E+001;
1.608582788483898E+010;-2.824417519629940E+001;-4.789299712617935E+000;
1.670012723836252E+010;-2.901716847607928E+001;-1.382076710491636E+002;
1.733788598101053E+010;-2.821007914369929E+001;-8.604199085058926E+001;
1.800000000000000E+010;-2.953882469061353E+001;1.502387764885968E+002;
