# Version 1.00
#
freq[Hz];db:Trc1_S21;ang:Trc1_S21;
1.000000000000000E+007;-3.992286731411998E-001;-9.493148041913161E+000;
1.038188855303029E+007;-6.554535737047812E-001;-7.338550808164984E+000;
1.077836099275414E+007;-3.092954649446366E-001;-8.035275762619428E+000;
1.118997426111024E+007;-3.620127543710253E-001;-1.002634061043973E+001;
1.161730656901240E+007;7.733500005992763E-002;-1.062201515224054E+001;
1.206095820858735E+007;-1.771259786509223E-001;-9.352340398336015E+000;
1.252155239643097E+007;-4.635486190992199E-001;-1.131333252578957E+001;
1.299973614906757E+007;-2.320151164354719E-001;-1.158939751367964E+001;
1.349618119184187E+007;-5.182415495911810E-001;-1.448101584723814E+001;
1.401158490252058E+007;-3.099190274537448E-001;-1.346090833839767E+001;
1.454667129092905E+007;-4.193077418683496E-001;-1.432362598147669E+001;
1.510219201599907E+007;-3.580802273628305E-001;-1.484393207315638E+001;
1.567892744165662E+007;-3.696211442963115E-001;-1.530139529181731E+001;
1.627768773303274E+007;-3.356955989853695E-001;-1.634474031742771E+001;
1.689931399453742E+007;-4.761659991236940E-001;-1.695137574233100E+001;
1.754467945139527E+007;-3.251103220930863E-001;-1.767111923941356E+001;
1.821469067630263E+007;-3.074423660456854E-001;-1.794669166540043E+001;
1.891028886292939E+007;-3.406669258716548E-001;-1.932589894798378E+001;
1.963245114805428E+007;-2.435018482086296E-001;-2.011437063296089E+001;
2.038219198419111E+007;-9.726098297946581E-004;-2.072517653238476E+001;
2.116056456463395E+007;-1.297642849063509E-001;-2.197584577891587E+001;
2.196866230292316E+007;-1.433053815556373E-001;-2.235044232341851E+001;
2.280762036881060E+007;-2.413955426412334E-001;-2.351288536859570E+001;
2.367861728288153E+007;-1.420128289187388E-001;-2.468816549060108E+001;
2.458287657207330E+007;-1.906301767938370E-001;-2.588774646004583E+001;
2.552166848841643E+007;-1.982043476335746E-001;-2.580700297554532E+001;
2.649631179341245E+007;-1.823464409574118E-001;-2.683584429110819E+001;
2.750817561055502E+007;-1.788338459344866E-001;-2.829352649604287E+001;
2.855868134859682E+007;-1.901180256785144E-001;-2.999243209800623E+001;
2.964930469826371E+007;-2.863035600097522E-001;-3.150555011222663E+001;
3.078157770522112E+007;-1.908151070588208E-001;-3.182067210705721E+001;
3.195709092220476E+007;-1.696253052527848E-001;-3.293301265721436E+001;
3.317749564333858E+007;-1.781906856210896E-001;-3.414131414267209E+001;
3.444450622377892E+007;-2.304904499162941E-001;-3.560838550932076E+001;
3.575990248794310E+007;-1.858237360089145E-001;-3.640180700619686E+001;
3.712553222970559E+007;-1.293134583364308E-001;-3.770964267108401E+001;
3.854331380807376E+007;-1.799882441820380E-001;-4.005272182385259E+001;
4.001523884198953E+007;-1.328086098763164E-001;-4.086876326143659E+001;
4.154337500804243E+007;-1.296839553384321E-001;-4.262020386331259E+001;
4.312986894502404E+007;-1.310857928406964E-001;-4.447414075543371E+001;
4.477694926940417E+007;-1.661033870027955E-001;-4.600547961381501E+001;
4.648692970596453E+007;-1.094011949917984E-001;-4.777573527889071E+001;
4.826221233798770E+007;-1.089431536743159E-001;-4.969892670465243E+001;
5.010529098156718E+007;-1.455931267752046E-001;-5.156002171401087E+001;
5.201875468877842E+007;-1.567256551198696E-001;-5.357132344004442E+001;
5.400529138463195E+007;-1.416638819585145E-001;-5.598864683092106E+001;
5.606769164291760E+007;-2.297275165771442E-001;-5.765574865917003E+001;
5.820885260624383E+007;-1.621683374539782E-001;-5.983262970282565E+001;
6.043178205577903E+007;-1.895256881281508E-001;-6.213831155377393E+001;
6.273960263641138E+007;-2.166188513559862E-001;-6.453080128700862E+001;
6.513555624326284E+007;-1.450371350929534E-001;-6.702310195531958E+001;
6.762300857571912E+007;-1.535454468177859E-001;-6.969655255451765E+001;
7.020545386537276E+007;-1.364261254238422E-001;-7.214176348829336E+001;
7.288651978452097E+007;-1.789370587924848E-001;-7.503574193038543E+001;
7.566997254211341E+007;-2.202534362324364E-001;-7.779353708440031E+001;
7.855972217430838E+007;-1.671987160744937E-001;-8.100988686666764E+001;
8.155982803706922E+007;-1.701052524689968E-001;-8.377423302517265E+001;
8.467450450851679E+007;-1.589937075543999E-001;-8.703417267622510E+001;
8.790812690904823E+007;-1.877940872847312E-001;-9.051640853079282E+001;
9.126523764753820E+007;-2.032489420567695E-001;-9.407164674033619E+001;
9.475055260225661E+007;-2.058044083723418E-001;-9.774642626545092E+001;
9.836896774546625E+007;-1.846245855879850E-001;-1.012090690375878E+002;
1.021255660210062E+008;-1.715665945316628E-001;-1.050411569360753E+002;
1.060256244845224E+008;-1.691040078789071E-001;-1.087650709636345E+002;
1.100746217163751E+008;-1.574875655519626E-001;-1.133445329657197E+002;
1.142782455176374E+008;-2.098682326117954E-001;-1.175301437944459E+002;
1.186424008999945E+008;-1.915002712226821E-001;-1.219883524780514E+002;
1.231732183807684E+008;-2.029405515325742E-001;-1.267367857670771E+002;
1.278770625947199E+008;-2.084107389431602E-001;-1.315988713924251E+002;
1.327605412347261E+008;-2.370189754084431E-001;-1.365690824434425E+002;
1.378305143338909E+008;-2.256637362447422E-001;-1.417681685945981E+002;
1.430941039021300E+008;-2.151340873880155E-001;-1.471250673399962E+002;
1.485587039307650E+008;-2.122164614283876E-001;-1.527914702761827E+002;
1.542319907791826E+008;-2.159666339932307E-001;-1.583796523086882E+002;
1.601219339581469E+008;-2.121855737991843E-001;-1.646530428918930E+002;
1.662368073249158E+008;-2.252931598160763E-001;-1.709170919508434E+002;
1.725852007058845E+008;-2.336378645187823E-001;-1.774651840164016E+002;
1.791760319630858E+008;-2.422418561547376E-001;1.758246339325654E+002;
1.860185595214950E+008;-2.183050366376129E-001;1.687420559602886E+002;
1.931223953747393E+008;-2.385167346247998E-001;1.614741561204474E+002;
2.004975185874796E+008;-2.241475106586091E-001;1.539865917659892E+002;
2.081542893134333E+008;-2.424309545925788E-001;1.460871297080005E+002;
2.161034633487289E+008;-2.411471466927928E-001;1.379074398925504E+002;
2.243562072410370E+008;-2.304993167780470E-001;1.294817672073456E+002;
2.329241139757013E+008;-2.475038140548596E-001;1.206829781413231E+002;
2.418192192609057E+008;-2.461264608671030E-001;1.115163155383874E+002;
2.510540184347519E+008;-2.442466663306462E-001;1.021852061202380E+002;
2.606414840180006E+008;-2.401546725937393E-001;9.226007023624278E+001;
2.705950839371309E+008;-2.667119226341637E-001;8.208474134699158E+001;
2.809288004433170E+008;-2.731658412993832E-001;7.152591839956261E+001;
2.916571497539004E+008;-2.639321734871941E-001;6.044703394742402E+001;
3.027952024439460E+008;-2.700726394407871E-001;4.903373615697653E+001;
3.143586046165293E+008;-2.737634786970576E-001;3.719605045491809E+001;
3.263635998814921E+008;-2.866603116322207E-001;2.491103364776227E+001;
3.388270521735421E+008;-2.968507862034691E-001;1.211060157454817E+001;
3.517664694417494E+008;-2.892776752542604E-001;-1.173964053867600E+000;
3.652000282437178E+008;-3.000674380059613E-001;-1.488198114969357E+001;
3.791465992789793E+008;-3.016148743328021E-001;-2.919536476641617E+001;
3.936257738974798E+008;-3.029728173002430E-001;-4.404427968133459E+001;
4.086578916203936E+008;-3.014806904618472E-001;-5.945547122929801E+001;
4.242640687119258E+008;-3.134655006560269E-001;-7.549576796161460E+001;
4.404662278422399E+008;-3.081387300450709E-001;-9.209558671174736E+001;
4.572871288831783E+008;-3.182955939174927E-001;-1.093820175830037E+002;
4.747504008800356E+008;-3.238265991239411E-001;-1.272109425637807E+002;
4.928805752442984E+008;-3.314483101318550E-001;-1.457960485230289E+002;
5.117031202139767E+008;-3.466216666242025E-001;-1.650651323977598E+002;
5.312444766299368E+008;-3.544903209643284E-001;1.749710735291674E+002;
5.515320950784909E+008;-3.658827890447487E-001;1.541516006016185E+002;
5.725944744524199E+008;-3.680802927428180E-001;1.326124692233244E+002;
5.944612019845973E+008;-3.698670935139305E-001;1.102300920806178E+002;
6.171629948104519E+008;-3.807352137223657E-001;8.693922952021885E+001;
6.407317431176524E+008;-3.928829009568358E-001;6.285801596595750E+001;
6.652005549436301E+008;-4.011543384342182E-001;3.772679008550066E+001;
6.906038026838671E+008;-4.096669268653176E-001;1.175305258960410E+001;
7.169771713762831E+008;-4.065090369835431E-001;-1.518155336082554E+001;
7.443577088295471E+008;-3.992660173786586E-001;-4.310895515740277E+001;
7.727838776657330E+008;-3.981194046733795E-001;-7.218040104245721E+001;
8.022956093504235E+008;-3.981375174404274E-001;-1.024222320924671E+002;
8.329343602861624E+008;-4.079249789816486E-001;-1.338085237450867E+002;
8.647431700480518E+008;-4.188376232617910E-001;-1.664165637008999E+002;
8.977667218432996E+008;-4.291504121792810E-001;1.597633552357041E+002;
9.320514052796482E+008;-4.347937522682673E-001;1.246939013759637E+002;
9.676453815308577E+008;-4.372050171854480E-001;8.826437033443261E+001;
1.004598650990784E+009;-4.370905586339941E-001;5.049661511158658E+001;
1.042963123511089E+009;-4.417005161187522E-001;1.118866106794300E+001;
1.082792691321250E+009;-4.472310074400143E-001;-2.966138780278876E+001;
1.124143304733295E+009;-4.618142416476280E-001;-7.196257904567983E+001;
1.167073050737623E+009;-4.698837887924988E-001;-1.158822078547029E+002;
1.211642234600307E+009;-4.820965418795917E-001;-1.615482854192235E+002;
1.257913464576497E+009;-4.856450403533826E-001;1.510623980348393E+002;
1.305951739858941E+009;-4.983994187719825E-001;1.018837115842844E+002;
1.355824541885154E+009;-5.055098314741716E-001;5.081501891593929E+001;
1.407601929131501E+009;-5.159400955501654E-001;-2.179212287570756E+000;
1.461356635527369E+009;-5.300845107085926E-001;-5.715997948167413E+001;
1.517164172627645E+009;-5.404801893910258E-001;-1.142721679683530E+002;
1.575102935687062E+009;-5.459372545909562E-001;-1.736301581032395E+002;
1.635254313785392E+009;-5.581588128774074E-001;1.247876466621898E+002;
1.697702804158197E+009;-5.707399252381812E-001;6.085777608667097E+001;
1.762536130893741E+009;-5.810107761271602E-001;-5.432791184726352E+000;
1.829845368162803E+009;-5.884794826502688E-001;-7.427932235861853E+001;
1.899725068154491E+009;-6.038503091019255E-001;-1.457074811754132E+002;
1.972273393897780E+009;-6.179022027282835E-001;1.399003255434135E+002;
2.047592257155356E+009;-6.195684159951060E-001;6.281222168559174E+001;
2.125787461583465E+009;-6.449372089553054E-001;-1.733728497752403E+001;
2.206968851358869E+009;-6.818585131653443E-001;-1.002067935783948E+002;
2.291250465481706E+009;-6.743689488715026E-001;1.738695668677454E+002;
2.378750697970985E+009;-6.960410376334723E-001;8.379062376430238E+001;
2.469592464177779E+009;-6.890132530921281E-001;-1.002818772651532E+001;
2.563903373449715E+009;-6.498624207260048E-001;-1.059410278855187E+002;
2.661815908389335E+009;-6.967619941064276E-001;1.552348484518160E+002;
2.763467610958116E+009;-7.097458418614739E-001;5.098853769984702E+001;
2.869001275687604E+009;-7.425102310323346E-001;-5.719493816073864E+001;
2.978565150269043E+009;-7.662048134614270E-001;-1.696012692976081E+002;
3.092313143803313E+009;-7.721230893430257E-001;7.382541230352321E+001;
3.210405043003673E+009;-8.019962733848557E-001;-4.674287401500241E+001;
3.333006736655056E+009;-8.038506643368248E-001;-1.722088460772312E+002;
3.460290448645197E+009;-8.139871522422877E-001;5.747538841824221E+001;
3.592434979894962E+009;-8.369228613162890E-001;-7.780181349261721E+001;
3.729625959527711E+009;-8.382255820062756E-001;1.417529644248067E+002;
3.872056105630537E+009;-8.396582607161559E-001;-3.940324963668310E+000;
4.019925495973672E+009;-9.003909068111731E-001;-1.552486836116106E+002;
4.173441849068368E+009;-8.646042566413490E-001;4.768069673650490E+001;
4.332820815958047E+009;-9.093802560680413E-001;-1.152182693402400E+002;
4.498286283152621E+009;-9.195029034275022E-001;7.542495020330580E+001;
4.670070687131537E+009;-9.131763390356503E-001;-1.003612804564878E+002;
4.848415340857322E+009;-9.425282005321850E-001;7.712468033145298E+001;
5.033570772758309E+009;-9.761191969929738E-001;-1.122076370301570E+002;
5.225797078656734E+009;-1.010940568626504E+000;5.100968389302371E+001;
5.425364287136548E+009;-9.960132913502768E-001;-1.531011202255175E+002;
5.632552738864227E+009;-1.035623977735072E+000;-4.961478407567888E+000;
5.847653480395394E+009;-1.065836774383223E+000;1.346757619225402E+002;
6.070968673020469E+009;-1.107892029013261E+000;-9.335506636760843E+001;
6.302812017223670E+009;-1.093672022571865E+000;2.913666703434877E+001;
6.543509193351618E+009;-1.101563364235762E+000;1.420810370574623E+002;
6.793398319110564E+009;-1.135367928707215E+000;-1.128814588706663E+002;
7.052830424534919E+009;-1.170628141609376E+000;-1.878271729088403E+001;
7.322169945094285E+009;-1.255083130483886E+000;6.573043630732269E+001;
7.601795233631680E+009;-1.265096431989388E+000;1.400244583244903E+002;
7.892099091852097E+009;-1.204676080925209E+000;-1.574303981688350E+002;
8.193489322108005E+009;-1.232346162309142E+000;-1.064666979930756E+002;
8.506389300256902E+009;-1.342760853632955E+000;-6.772417079762762E+001;
8.831238570395649E+009;-1.375863217676443E+000;-3.922909699984031E+001;
9.168493462307018E+009;-1.310371858019740E+000;-2.348582814272967E+001;
9.518627732485830E+009;-1.364080522432651E+000;-2.204646739766036E+001;
9.882133229645132E+009;-1.467934269503399E+000;-3.599119032506842E+001;
1.025952058563731E+010;-1.602187938609629E+000;-6.068962978310540E+001;
1.065131993276066E+010;-1.604516702851231E+000;-1.033985220965647E+002;
1.105808164845913E+010;-1.581548084814856E+000;-1.587581948770136E+002;
1.148037712846121E+010;-1.634353557694634E+000;1.290441465605183E+002;
1.191879958944423E+010;-1.611793830428848E+000;3.968368015204773E+001;
1.237396490235132E+010;-1.666073810194874E+000;-6.771777776759900E+001;
1.284651245753197E+010;-1.839579069829259E+000;1.674055621397287E+002;
1.333710606292122E+010;-1.868760428787429E+000;2.499529570978830E+001;
1.384643487651927E+010;-2.192932999728892E+000;-1.371810620253507E+002;
1.437521437448148E+010;-2.439615015903090E+000;4.132883121603517E+001;
1.492418735617858E+010;-2.440347055081355E+000;-1.596746915243679E+002;
1.549412498763898E+010;-3.042645240207329E+000;-2.740830895183732E+001;
1.608582788483898E+010;-3.601015665918786E+000;8.104010523136189E+001;
1.670012723836252E+010;-4.240523201006275E+000;-1.784161144172447E+002;
1.733788598101053E+010;-3.171161296047438E+000;-1.086310063178707E+002;
1.800000000000000E+010;-2.587972423756567E+000;-7.078369871066333E+001;
