# Version 1.00
#
freq[Hz];db:Trc1_S42;ang:Trc1_S42;
1.000000000000000E+007;-6.865423087311038E+001;-9.976195644127644E+001;
1.038188855303029E+007;-6.048715126632814E+001;1.408928026900223E+002;
1.077836099275414E+007;-7.528979442844118E+001;-9.366204492529003E+001;
1.118997426111024E+007;-6.571449978591957E+001;9.424400544707643E+001;
1.161730656901240E+007;-6.440045780241053E+001;-1.336967996223434E+002;
1.206095820858735E+007;-6.670069199799262E+001;-7.598721923837368E+001;
1.252155239643097E+007;-6.383746984590228E+001;2.199799928200451E+001;
1.299973614906757E+007;-6.940946759048059E+001;4.897412051718781E+001;
1.349618119184187E+007;-7.204703462954969E+001;9.943352496990985E+001;
1.401158490252058E+007;-6.642738211495966E+001;-6.410049988582573E+001;
1.454667129092905E+007;-7.022986998403103E+001;1.068798003668176E+002;
1.510219201599907E+007;-6.591169582501586E+001;4.359176817723616E+001;
1.567892744165662E+007;-7.118754107097368E+001;-1.788387006160852E+002;
1.627768773303274E+007;-7.333922251920694E+001;1.048670138857203E+001;
1.689931399453742E+007;-8.236031907966056E+001;-1.330265878157075E+002;
1.754467945139527E+007;-6.862599919853679E+001;-2.359251722477844E+001;
1.821469067630263E+007;-7.165916754288992E+001;-9.841157064690567E+001;
1.891028886292939E+007;-7.447084980096669E+001;3.772358093418871E+001;
1.963245114805428E+007;-7.026764597012672E+001;-8.886894803863493E+001;
2.038219198419111E+007;-8.138192156534267E+001;-3.024516140934642E+001;
2.116056456463395E+007;-6.719043283483087E+001;8.502818901972458E+001;
2.196866230292316E+007;-7.647380134668427E+001;5.635682881745467E+001;
2.280762036881060E+007;-6.803674584365677E+001;7.396897633544418E+001;
2.367861728288153E+007;-7.144493922267840E+001;2.408244170757151E+001;
2.458287657207330E+007;-7.126191783255275E+001;2.176338953346358E+001;
2.552166848841643E+007;-7.174965422906283E+001;-2.238397614602259E+001;
2.649631179341245E+007;-7.091922287728586E+001;5.685294011040907E+001;
2.750817561055502E+007;-7.058796549869869E+001;1.314813172362166E+002;
2.855868134859682E+007;-7.373464355331237E+001;-4.644701914308443E+001;
2.964930469826371E+007;-7.518305473812326E+001;-1.599369336807147E+001;
3.078157770522112E+007;-6.946659189227576E+001;1.184487789627587E+001;
3.195709092220476E+007;-7.562309523635150E+001;1.377315774701113E+002;
3.317749564333858E+007;-7.630750581791381E+001;-6.901117774427432E+001;
3.444450622377892E+007;-6.893494427831533E+001;-1.431938110466894E+001;
3.575990248794310E+007;-6.964502729711504E+001;6.705234301841799E+001;
3.712553222970559E+007;-7.180031203837250E+001;8.374379431971781E+001;
3.854331380807376E+007;-6.852461684494161E+001;2.330298185114397E+001;
4.001523884198953E+007;-7.038369399986038E+001;4.289202890700155E+001;
4.154337500804243E+007;-8.052945282682182E+001;8.677000130317073E+001;
4.312986894502404E+007;-7.219190680343881E+001;5.027826202027884E+001;
4.477694926940417E+007;-7.100039420039251E+001;5.632912314957893E+001;
4.648692970596453E+007;-6.895899086422193E+001;4.537693272318764E+001;
4.826221233798770E+007;-7.342842705177695E+001;2.483754426334984E+001;
5.010529098156718E+007;-7.181838235358703E+001;3.106213678937991E+001;
5.201875468877842E+007;-7.060675507998818E+001;3.314692978721833E+001;
5.400529138463195E+007;-6.780676718068521E+001;1.587690116478441E+001;
5.606769164291760E+007;-6.786519811088122E+001;3.517247977237888E+001;
5.820885260624383E+007;-6.876340015251931E+001;4.585620254874157E+000;
6.043178205577903E+007;-6.995623448192087E+001;-3.192015149066597E+001;
6.273960263641138E+007;-6.846874043194624E+001;5.460449362164960E+000;
6.513555624326284E+007;-7.024163311622203E+001;-1.685800911650221E+000;
6.762300857571912E+007;-6.751181813890463E+001;1.539230620735939E+001;
7.020545386537276E+007;-6.809099199774801E+001;1.313255231598983E+000;
7.288651978452097E+007;-6.756340544690499E+001;-5.078758714207624E+000;
7.566997254211341E+007;-7.004937445367519E+001;-1.907291008455438E+001;
7.855972217430838E+007;-6.855823282786659E+001;-1.428270433012392E+001;
8.155982803706922E+007;-6.688857169623742E+001;-2.062260106259692E+001;
8.467450450851679E+007;-6.663407418051673E+001;-2.666355285608101E+001;
8.790812690904823E+007;-6.602979514559674E+001;-3.782216218393543E+001;
9.126523764753820E+007;-6.472029213103161E+001;-3.992422311840844E+001;
9.475055260225661E+007;-6.648526738770960E+001;-4.641776750510125E+001;
9.836896774546625E+007;-6.625610181682205E+001;-6.078011335898341E+001;
1.021255660210062E+008;-6.493349647748399E+001;-6.161514202377307E+001;
1.060256244845224E+008;-6.547021248374105E+001;-5.629379054369287E+001;
1.100746217163751E+008;-6.355486682961065E+001;-6.388950467320584E+001;
1.142782455176374E+008;-6.427653040347292E+001;-7.946936115397458E+001;
1.186424008999945E+008;-6.476313435947728E+001;-7.776630331703323E+001;
1.231732183807684E+008;-6.336541622222535E+001;-8.482169831366656E+001;
1.278770625947199E+008;-6.305828618517872E+001;-9.010738218442693E+001;
1.327605412347261E+008;-6.327901598509492E+001;-1.008077483644115E+002;
1.378305143338909E+008;-6.268890195070164E+001;-1.095404556393709E+002;
1.430941039021300E+008;-6.206954533611687E+001;-1.154490147876092E+002;
1.485587039307650E+008;-6.240355302305176E+001;-1.230634407988170E+002;
1.542319907791826E+008;-6.249145434778225E+001;-1.299853424356366E+002;
1.601219339581469E+008;-6.161957688461063E+001;-1.365358417547720E+002;
1.662368073249158E+008;-6.100939396786105E+001;-1.477086834614330E+002;
1.725852007058845E+008;-6.099317559897148E+001;-1.543688760508081E+002;
1.791760319630858E+008;-6.044720723612581E+001;-1.630347034803843E+002;
1.860185595214950E+008;-6.005724741905060E+001;-1.758305783953698E+002;
1.931223953747393E+008;-5.985709291157112E+001;1.737873400850018E+002;
2.004975185874796E+008;-5.952310432888032E+001;1.645840993189416E+002;
2.081542893134333E+008;-5.911632641459987E+001;1.507105071246676E+002;
2.161034633487289E+008;-5.910028689149671E+001;1.417006093596220E+002;
2.243562072410370E+008;-5.867356227362620E+001;1.328600364026078E+002;
2.329241139757013E+008;-5.820591675738003E+001;1.174133405271218E+002;
2.418192192609057E+008;-5.777210294535846E+001;1.072930762478006E+002;
2.510540184347519E+008;-5.752317378352510E+001;9.370074514869637E+001;
2.606414840180006E+008;-5.708747103294856E+001;7.929070152625197E+001;
2.705950839371309E+008;-5.699601110612578E+001;6.416686261280034E+001;
2.809288004433170E+008;-5.659202829355080E+001;5.136049468361306E+001;
2.916571497539004E+008;-5.621441919564875E+001;3.530176102930759E+001;
3.027952024439460E+008;-5.598788105793354E+001;1.972863686566262E+001;
3.143586046165293E+008;-5.566161422318005E+001;3.086323834638908E+000;
3.263635998814921E+008;-5.550306414019600E+001;-1.327192792871304E+001;
3.388270521735421E+008;-5.509188904469995E+001;-3.116707876620705E+001;
3.517664694417494E+008;-5.471486247560712E+001;-4.896786750143947E+001;
3.652000282437178E+008;-5.438575176635303E+001;-6.885610392879758E+001;
3.791465992789793E+008;-5.415667227289541E+001;-8.937815376528354E+001;
3.936257738974798E+008;-5.382457189764553E+001;-1.094148388551560E+002;
4.086578916203936E+008;-5.348707845583139E+001;-1.300198219201148E+002;
4.242640687119258E+008;-5.312718166800212E+001;-1.527587777773228E+002;
4.404662278422399E+008;-5.278634019948385E+001;-1.760762501079604E+002;
4.572871288831783E+008;-5.254772177100712E+001;1.606776640724366E+002;
4.747504008800356E+008;-5.220004759502265E+001;1.358744235458350E+002;
4.928805752442984E+008;-5.186538562045453E+001;1.103495284003630E+002;
5.117031202139767E+008;-5.166461285262580E+001;8.321137226596768E+001;
5.312444766299368E+008;-5.128073381509412E+001;5.580128561964033E+001;
5.515320950784909E+008;-5.100344303538330E+001;2.681655522566454E+001;
5.725944744524199E+008;-5.071470328762962E+001;-2.693733391819437E+000;
5.944612019845973E+008;-5.037680385911989E+001;-3.376365867500039E+001;
6.171629948104519E+008;-5.007207197091513E+001;-6.585802628686986E+001;
6.407317431176524E+008;-4.979447554427802E+001;-9.924077927608035E+001;
6.652005549436301E+008;-4.944861866176141E+001;-1.339584282556964E+002;
6.906038026838671E+008;-4.911285573374772E+001;-1.698944442849071E+002;
7.169771713762831E+008;-4.884914028294101E+001;1.527399594301540E+002;
7.443577088295471E+008;-4.851097714994831E+001;1.140566480477245E+002;
7.727838776657330E+008;-4.824730986501804E+001;7.366085338873435E+001;
8.022956093504235E+008;-4.791803910206773E+001;3.201843640008057E+001;
8.329343602861624E+008;-4.765002676571593E+001;-1.143290880739993E+001;
8.647431700480518E+008;-4.732366287906091E+001;-5.633596883197387E+001;
8.977667218432996E+008;-4.701739679432483E+001;-1.032813178638990E+002;
9.320514052796482E+008;-4.672044947051486E+001;-1.519192346416633E+002;
9.676453815308577E+008;-4.642288449748840E+001;1.577630132848275E+002;
1.004598650990784E+009;-4.611444672348573E+001;1.055172874746780E+002;
1.042963123511089E+009;-4.582925233423620E+001;5.104469143778113E+001;
1.082792691321250E+009;-4.555562646329777E+001;-5.325220346269624E+000;
1.124143304733295E+009;-4.524939608448152E+001;-6.401046421239033E+001;
1.167073050737623E+009;-4.496910040245844E+001;-1.246690596070542E+002;
1.211642234600307E+009;-4.468600235387329E+001;1.721847500630543E+002;
1.257913464576497E+009;-4.439929181659622E+001;1.065923643863038E+002;
1.305951739858941E+009;-4.412434101610428E+001;3.864173311479105E+001;
1.355824541885154E+009;-4.385637081725621E+001;-3.202138459523396E+001;
1.407601929131501E+009;-4.357686458671355E+001;-1.053814584333902E+002;
1.461356635527369E+009;-4.332082951394610E+001;1.783798617743615E+002;
1.517164172627645E+009;-4.304801838195081E+001;9.935814817277752E+001;
1.575102935687062E+009;-4.280235637274371E+001;1.727145165609415E+001;
1.635254313785392E+009;-4.255420964778591E+001;-6.785475603540380E+001;
1.697702804158197E+009;-4.229469860111589E+001;-1.562790258118645E+002;
1.762536130893741E+009;-4.203581100768892E+001;1.118760967627447E+002;
1.829845368162803E+009;-4.179109122627785E+001;1.644111015931625E+001;
1.899725068154491E+009;-4.153789387613659E+001;-8.263020988578886E+001;
1.972273393897780E+009;-4.133455454828273E+001;1.744675341216333E+002;
2.047592257155356E+009;-4.112035518002708E+001;6.765523729935794E+001;
2.125787461583465E+009;-4.092507198358742E+001;-4.304986983622150E+001;
2.206968851358869E+009;-4.069982816974529E+001;-1.580197952457860E+002;
2.291250465481706E+009;-4.049122716425832E+001;8.298542713966165E+001;
2.378750697970985E+009;-4.028318019067931E+001;-4.154589156214660E+001;
2.469592464177779E+009;-4.010898665507188E+001;-1.706257194020656E+002;
2.563903373449715E+009;-3.979817587454374E+001;5.631193615944842E+001;
2.661815908389335E+009;-3.967743866035728E+001;-8.077583663307996E+001;
2.763467610958116E+009;-3.957128197369622E+001;1.327905452625458E+002;
2.869001275687604E+009;-3.943576833533459E+001;-1.676098779611541E+001;
2.978565150269043E+009;-3.929480752193200E+001;-1.722900446995122E+002;
3.092313143803313E+009;-3.916022413269138E+001;2.614696746912282E+001;
3.210405043003673E+009;-3.907678196367019E+001;-1.413279849797049E+002;
3.333006736655056E+009;-3.894943080377362E+001;4.456399983606189E+001;
3.460290448645197E+009;-3.887479747738119E+001;-1.364806881416726E+002;
3.592434979894962E+009;-3.881571350351361E+001;3.597127096463407E+001;
3.729625959527711E+009;-3.872506912253888E+001;-1.591663871353542E+002;
3.872056105630537E+009;-3.868798569271381E+001;-1.617850249856522E+000;
4.019925495973672E+009;-3.865764189373192E+001;1.477181070864237E+002;
4.173441849068368E+009;-3.864847498806525E+001;-7.047774580403709E+001;
4.332820815958047E+009;-3.865879203267226E+001;6.243864292501737E+001;
4.498286283152621E+009;-3.863759800464450E+001;-1.733197609057033E+002;
4.670070687131537E+009;-3.869753029917924E+001;-5.824046395561258E+001;
4.848415340857322E+009;-3.871941728681620E+001;4.735886061336318E+001;
5.033570772758309E+009;-3.884202522438711E+001;1.429380434213967E+002;
5.225797078656734E+009;-3.887038071547387E+001;-1.312423433893901E+002;
5.425364287136548E+009;-3.896302092389841E+001;-5.657015938006192E+001;
5.632552738864227E+009;-3.910920540066726E+001;7.209661209773246E+000;
5.847653480395394E+009;-3.921576255099650E+001;6.010751305250689E+001;
6.070968673020469E+009;-3.927262874321547E+001;1.003553722294004E+002;
6.302812017223670E+009;-3.936173971360137E+001;1.301318068747193E+002;
6.543509193351618E+009;-3.938406865631041E+001;1.450728347126873E+002;
6.793398319110564E+009;-3.938383579174288E+001;1.480384121278276E+002;
7.052830424534919E+009;-3.943744153852225E+001;1.364490062390666E+002;
7.322169945094285E+009;-3.943886123087924E+001;1.111369600113856E+002;
7.601795233631680E+009;-3.944314940722359E+001;7.102898704201748E+001;
7.892099091852097E+009;-3.945858506004302E+001;1.558632780309707E+001;
8.193489322108005E+009;-3.947259364792178E+001;-5.607619861271473E+001;
8.506389300256902E+009;-3.952818429853448E+001;-1.438012223604354E+002;
8.831238570395649E+009;-3.957256723811062E+001;1.114951009580764E+002;
9.168493462307018E+009;-3.959668628090872E+001;-1.119613869373996E+001;
9.518627732485830E+009;-3.965032482438720E+001;-1.519681967824537E+002;
9.882133229645132E+009;-3.978100911872401E+001;4.544809198488422E+001;
1.025952058563731E+010;-3.998838622847576E+001;-1.368540554742791E+002;
1.065131993276066E+010;-4.006937065918638E+001;2.376890049089058E+001;
1.105808164845913E+010;-4.027671075350134E+001;1.608078755888832E+002;
1.148037712846121E+010;-4.037777697051150E+001;-8.437814194677033E+001;
1.191879958944423E+010;-4.032433884662314E+001;7.251221242217909E+000;
1.237396490235132E+010;-4.048700131535359E+001;7.423719792130051E+001;
1.284651245753197E+010;-4.049069974732365E+001;1.163020479071738E+002;
1.333710606292122E+010;-4.059019866325959E+001;1.324417064218925E+002;
1.384643487651927E+010;-4.071557047742942E+001;1.216666717500419E+002;
1.437521437448148E+010;-4.072018973760180E+001;8.379645619329573E+001;
1.492418735617858E+010;-4.077697396339299E+001;1.637101428645430E+001;
1.549412498763898E+010;-4.070298376412504E+001;-8.426209863951145E+001;
1.608582788483898E+010;-4.097844113036632E+001;1.450737976065253E+002;
1.670012723836252E+010;-4.095307827208185E+001;-1.909775068452916E+001;
1.733788598101053E+010;-4.129603913935589E+001;1.424210829325365E+002;
1.800000000000000E+010;-4.120717581756868E+001;-8.794091492327544E+001;
