# Version 1.00
#
freq[Hz];db:Trc1_S31;ang:Trc1_S31;
1.000000000000000E+007;-7.064340178200612E+001;4.367541215639536E+001;
1.038188855303029E+007;-8.102449734607136E+001;-8.521086495645292E+001;
1.077836099275414E+007;-6.410970336706761E+001;1.129134800263284E+002;
1.118997426111024E+007;-7.335379369218425E+001;1.578465202760806E+002;
1.161730656901240E+007;-7.721696207067468E+001;1.068152694636425E+002;
1.206095820858735E+007;-6.306952690973822E+001;-7.801250452098346E+001;
1.252155239643097E+007;-7.330625432736977E+001;3.913568607435063E+001;
1.299973614906757E+007;-6.548725237028205E+001;6.707270704840049E+001;
1.349618119184187E+007;-7.086232032408792E+001;8.460858147029400E+001;
1.401158490252058E+007;-8.117854437599071E+001;3.906405427732409E+001;
1.454667129092905E+007;-7.804578531813408E+001;-1.778173606418847E+002;
1.510219201599907E+007;-6.662799491415514E+001;6.639450317064829E+001;
1.567892744165662E+007;-8.119999166707450E+001;4.068314634649268E+001;
1.627768773303274E+007;-8.042663182659965E+001;4.517415492947050E+001;
1.689931399453742E+007;-6.854702558502805E+001;7.202447662068765E+001;
1.754467945139527E+007;-6.802453877504527E+001;1.023227835619273E+002;
1.821469067630263E+007;-6.888001057086062E+001;1.223876189986888E+002;
1.891028886292939E+007;-7.862277141505142E+001;7.340782677522320E+001;
1.963245114805428E+007;-7.039464541706759E+001;1.588995794681006E+001;
2.038219198419111E+007;-6.940150353156771E+001;6.528418496038123E+001;
2.116056456463395E+007;-7.075568941803138E+001;5.871936738908900E+001;
2.196866230292316E+007;-7.312999092943005E+001;-1.658213913939842E+001;
2.280762036881060E+007;-7.084758439981334E+001;9.189880973053772E+001;
2.367861728288153E+007;-6.843370537130295E+001;4.228508415042887E+001;
2.458287657207330E+007;-7.149728451111493E+001;7.600841288342990E+001;
2.552166848841643E+007;-6.835060349194013E+001;6.402906349263935E+001;
2.649631179341245E+007;-6.792425572033331E+001;3.616187846309634E+001;
2.750817561055502E+007;-6.776740866471783E+001;7.158820383614909E+001;
2.855868134859682E+007;-6.935386891252108E+001;4.256428595605127E+001;
2.964930469826371E+007;-6.722110489102762E+001;5.099283686613921E+001;
3.078157770522112E+007;-6.642549949462027E+001;3.622943164910598E+001;
3.195709092220476E+007;-6.625944318161979E+001;4.369750271931678E+001;
3.317749564333858E+007;-6.846120996232315E+001;5.659341846820681E+001;
3.444450622377892E+007;-6.613793804477810E+001;4.705579231550964E+001;
3.575990248794310E+007;-7.042176697509062E+001;3.541720093361240E+001;
3.712553222970559E+007;-6.534080744788513E+001;4.502236664469050E+001;
3.854331380807376E+007;-6.510637977473748E+001;4.348931875141162E+001;
4.001523884198953E+007;-6.612518301105453E+001;2.376467057979937E+001;
4.154337500804243E+007;-6.580192876366607E+001;2.272493339458874E+001;
4.312986894502404E+007;-6.501749126942372E+001;2.910916639027263E+001;
4.477694926940417E+007;-6.424122833620137E+001;2.494378346713610E+001;
4.648692970596453E+007;-6.430637248150032E+001;1.092391063441751E+001;
4.826221233798770E+007;-6.409890451109284E+001;2.967631091590348E+001;
5.010529098156718E+007;-6.323054144161289E+001;1.832966844971266E+001;
5.201875468877842E+007;-6.304468914399891E+001;2.076988466963997E+001;
5.400529138463195E+007;-6.377593428366343E+001;1.395706612899473E+001;
5.606769164291760E+007;-6.390769144979358E+001;1.688568712172155E+001;
5.820885260624383E+007;-6.245882367931862E+001;1.218152367387011E+001;
6.043178205577903E+007;-6.277558106482971E+001;1.000168198545720E+001;
6.273960263641138E+007;-6.261541282344152E+001;4.287591987491651E+000;
6.513555624326284E+007;-6.160852724000525E+001;4.778346321698588E-001;
6.762300857571912E+007;-6.175719833276295E+001;1.734706526190085E+000;
7.020545386537276E+007;-6.142168719765184E+001;-5.288656463708664E+000;
7.288651978452097E+007;-6.049554068531680E+001;-1.011889400469285E+001;
7.566997254211341E+007;-6.076085966293467E+001;-1.004026834692934E+001;
7.855972217430838E+007;-6.053006134131855E+001;-1.672621953426383E+001;
8.155982803706922E+007;-5.960442151007408E+001;-1.990736737115296E+001;
8.467450450851679E+007;-5.911524717402346E+001;-2.432387791450842E+001;
8.790812690904823E+007;-5.927294531527279E+001;-2.908530512505055E+001;
9.126523764753820E+007;-5.843109734774725E+001;-3.273824517230281E+001;
9.475055260225661E+007;-5.873145709042706E+001;-3.792582932733981E+001;
9.836896774546625E+007;-5.844824720115993E+001;-4.170703141860588E+001;
1.021255660210062E+008;-5.780378851829695E+001;-4.706891646088509E+001;
1.060256244845224E+008;-5.766454137828719E+001;-5.262040481873869E+001;
1.100746217163751E+008;-5.718286634266409E+001;-5.767181228821053E+001;
1.142782455176374E+008;-5.698946941617446E+001;-6.492396517128380E+001;
1.186424008999945E+008;-5.647603732670719E+001;-6.923448281511365E+001;
1.231732183807684E+008;-5.645689985636631E+001;-7.599432704324775E+001;
1.278770625947199E+008;-5.605345510822959E+001;-8.121529105206588E+001;
1.327605412347261E+008;-5.551871467176250E+001;-8.760750667360091E+001;
1.378305143338909E+008;-5.534853111495896E+001;-9.367135752288311E+001;
1.430941039021300E+008;-5.473294384750551E+001;-1.017221727524872E+002;
1.485587039307650E+008;-5.471479808658083E+001;-1.095946261649885E+002;
1.542319907791826E+008;-5.440573579766357E+001;-1.176725144357349E+002;
1.601219339581469E+008;-5.408521239871507E+001;-1.244691884310041E+002;
1.662368073249158E+008;-5.362426840288003E+001;-1.323005950168509E+002;
1.725852007058845E+008;-5.330838830344410E+001;-1.409781462132199E+002;
1.791760319630858E+008;-5.300748218890269E+001;-1.503621734971724E+002;
1.860185595214950E+008;-5.269655653180588E+001;-1.587036568397740E+002;
1.931223953747393E+008;-5.249737356579724E+001;-1.686092449007612E+002;
2.004975185874796E+008;-5.212690072742879E+001;-1.783137131996605E+002;
2.081542893134333E+008;-5.178539321602748E+001;1.720953819019101E+002;
2.161034633487289E+008;-5.155673841902886E+001;1.614449605335712E+002;
2.243562072410370E+008;-5.125758111750878E+001;1.502685358808436E+002;
2.329241139757013E+008;-5.086307752054105E+001;1.383572009419574E+002;
2.418192192609057E+008;-5.058556691716660E+001;1.265043183180593E+002;
2.510540184347519E+008;-5.033445047850026E+001;1.147308190488155E+002;
2.606414840180006E+008;-4.993741073537102E+001;1.018407276903400E+002;
2.705950839371309E+008;-4.966713124377493E+001;8.841665504480839E+001;
2.809288004433170E+008;-4.936009824556736E+001;7.492418831821466E+001;
2.916571497539004E+008;-4.904556112467022E+001;6.019842853285125E+001;
3.027952024439460E+008;-4.875628680888071E+001;4.587526732605412E+001;
3.143586046165293E+008;-4.844462320330778E+001;3.019225147178486E+001;
3.263635998814921E+008;-4.812350268553437E+001;1.408788764909733E+001;
3.388270521735421E+008;-4.786635269197974E+001;-2.286360873073010E+000;
3.517664694417494E+008;-4.754354650093295E+001;-1.950351603425293E+001;
3.652000282437178E+008;-4.720881319598358E+001;-3.760075142702240E+001;
3.791465992789793E+008;-4.692459797006971E+001;-5.578776063443885E+001;
3.936257738974798E+008;-4.662187571563975E+001;-7.532472410402897E+001;
4.086578916203936E+008;-4.633117860321218E+001;-9.544955495116876E+001;
4.242640687119258E+008;-4.604906172826085E+001;-1.162690603371395E+002;
4.404662278422399E+008;-4.575940691445156E+001;-1.376745280863044E+002;
4.572871288831783E+008;-4.545663210368123E+001;-1.601948209654154E+002;
4.747504008800356E+008;-4.518707989848902E+001;1.764074533872980E+002;
4.928805752442984E+008;-4.490499970082210E+001;1.524749061710499E+002;
5.117031202139767E+008;-4.463302083117409E+001;1.274322155677069E+002;
5.312444766299368E+008;-4.434773462385753E+001;1.014142128465155E+002;
5.515320950784909E+008;-4.407163641737401E+001;7.429071339020575E+001;
5.725944744524199E+008;-4.381613487646990E+001;4.627342450815726E+001;
5.944612019845973E+008;-4.354801618532915E+001;1.715239505023997E+001;
6.171629948104519E+008;-4.328474938439055E+001;-1.314637017105762E+001;
6.407317431176524E+008;-4.303155099818949E+001;-4.450206654187971E+001;
6.652005549436301E+008;-4.277551681994923E+001;-7.702004946184032E+001;
6.906038026838671E+008;-4.254147651720457E+001;-1.109062472248207E+002;
7.169771713762831E+008;-4.228090865235718E+001;-1.460579519186295E+002;
7.443577088295471E+008;-4.204052736426979E+001;1.775049297999402E+002;
7.727838776657330E+008;-4.182156238756139E+001;1.395367636817773E+002;
8.022956093504235E+008;-4.159651435294943E+001;1.002023799710106E+002;
8.329343602861624E+008;-4.138788408501923E+001;5.941923931407482E+001;
8.647431700480518E+008;-4.118630659139433E+001;1.700930189496526E+001;
8.977667218432996E+008;-4.099115040244080E+001;-2.712485083939986E+001;
9.320514052796482E+008;-4.081718227077359E+001;-7.282489366401541E+001;
9.676453815308577E+008;-4.064591640513802E+001;-1.199491499795537E+002;
1.004598650990784E+009;-4.047294280015019E+001;-1.693731240146758E+002;
1.042963123511089E+009;-4.034222740979733E+001;1.389327580551520E+002;
1.082792691321250E+009;-4.020873763238274E+001;8.570470544395401E+001;
1.124143304733295E+009;-4.009375453942187E+001;3.042624736398791E+001;
1.167073050737623E+009;-3.999230574849582E+001;-2.702627528572656E+001;
1.211642234600307E+009;-3.989973405990774E+001;-8.672729352860311E+001;
1.257913464576497E+009;-3.983433979416026E+001;-1.487625593811232E+002;
1.305951739858941E+009;-3.979915924497641E+001;1.467440680571270E+002;
1.355824541885154E+009;-3.978909042968743E+001;7.981149880374993E+001;
1.407601929131501E+009;-3.978005086832189E+001;1.019542465877476E+001;
1.461356635527369E+009;-3.981139726537663E+001;-6.218060676611528E+001;
1.517164172627645E+009;-3.988742234697441E+001;-1.373765989657790E+002;
1.575102935687062E+009;-3.997692637953940E+001;1.443933679788642E+002;
1.635254313785392E+009;-4.008861922175488E+001;6.308353898158293E+001;
1.697702804158197E+009;-4.023409443209694E+001;-2.162006078439467E+001;
1.762536130893741E+009;-4.043434484651030E+001;-1.096236619158310E+002;
1.829845368162803E+009;-4.064541764545323E+001;1.587542275857618E+002;
1.899725068154491E+009;-4.088992278805908E+001;6.320064095738732E+001;
1.972273393897780E+009;-4.115953212748118E+001;-3.638541242786486E+001;
2.047592257155356E+009;-4.145218207705641E+001;-1.401206756371435E+002;
2.125787461583465E+009;-4.175753771801754E+001;1.116780441591254E+002;
2.206968851358869E+009;-4.202194088925108E+001;-1.085501755864600E+000;
2.291250465481706E+009;-4.222514064374793E+001;-1.190443431679606E+002;
2.378750697970985E+009;-4.241905677134891E+001;1.178577536048671E+002;
2.469592464177779E+009;-4.247945836396033E+001;-9.447509827641481E+000;
2.563903373449715E+009;-4.242300988468111E+001;-1.412321392641557E+002;
2.661815908389335E+009;-4.225597469461766E+001;8.257806767809305E+001;
2.763467610958116E+009;-4.199406354742475E+001;-5.911788017699398E+001;
2.869001275687604E+009;-4.164613298216560E+001;1.541973823229724E+002;
2.978565150269043E+009;-4.126246810724802E+001;2.874099844235391E+000;
3.092313143803313E+009;-4.090893953904306E+001;-1.530330938620362E+002;
3.210405043003673E+009;-4.056911280575937E+001;4.623527405555532E+001;
3.333006736655056E+009;-4.032011799602952E+001;-1.202244159654401E+002;
3.460290448645197E+009;-4.019709194994974E+001;6.798790301471736E+001;
3.592434979894962E+009;-4.019561600856226E+001;-1.100682202614662E+002;
3.729625959527711E+009;-4.039208326730538E+001;6.583001325423219E+001;
3.872056105630537E+009;-4.083729129378386E+001;-1.249939840494806E+002;
4.019925495973672E+009;-4.158265503259818E+001;3.694155427992315E+001;
4.173441849068368E+009;-4.271590319527749E+001;-1.685887176272099E+002;
4.332820815958047E+009;-4.436920734166459E+001;-2.191765056214653E+001;
4.498286283152621E+009;-4.695529328390165E+001;1.161525737900283E+002;
4.670070687131537E+009;-5.144659255528655E+001;-1.176872184202894E+002;
4.848415340857322E+009;-6.167066396374927E+001;-2.943476863369244E+001;
5.033570772758309E+009;-5.534164689024436E+001;-2.686822717696032E+001;
5.225797078656734E+009;-4.823158572422038E+001;6.532593851353603E+001;
5.425364287136548E+009;-4.445219055372274E+001;1.567486978056600E+002;
5.632552738864227E+009;-4.215388514072713E+001;-1.205507430235855E+002;
5.847653480395394E+009;-4.059803472340609E+001;-4.833838293860353E+001;
6.070968673020469E+009;-3.975162084380793E+001;1.282030969895481E+001;
6.302812017223670E+009;-3.946782091810548E+001;6.328599772035410E+001;
6.543509193351618E+009;-3.949495029122001E+001;9.953745356787323E+001;
6.793398319110564E+009;-4.013497079123263E+001;1.218481042301822E+002;
7.052830424534919E+009;-4.094027647111524E+001;1.279290206664299E+002;
7.322169945094285E+009;-4.181179805831547E+001;1.154982287765854E+002;
7.601795233631680E+009;-4.226509355688366E+001;8.556559220059509E+001;
7.892099091852097E+009;-4.192790379025292E+001;4.166553755132244E+001;
8.193489322108005E+009;-4.135386779404165E+001;-1.240034275069616E+001;
8.506389300256902E+009;-4.121170049266650E+001;-7.736164243025404E+001;
8.831238570395649E+009;-4.168132876639968E+001;-1.546324787884210E+002;
9.168493462307018E+009;-4.390696282789453E+001;1.140960759415191E+002;
9.518627732485830E+009;-4.954267553652929E+001;2.158253566651461E+000;
9.882133229645132E+009;-6.121008438884342E+001;1.004964013979220E+002;
1.025952058563731E+010;-4.858061021381663E+001;-7.073122747206556E+001;
1.065131993276066E+010;-4.259463092744255E+001;1.265779586874129E+002;
1.105808164845913E+010;-3.900434083674734E+001;-5.371374637309995E+001;
1.148037712846121E+010;-3.870012101821913E+001;9.940087411082963E+001;
1.191879958944423E+010;-4.020239703818456E+001;-1.588958032522999E+002;
1.237396490235132E+010;-4.315857264364376E+001;-3.405600248974628E+001;
1.284651245753197E+010;-4.370015466776746E+001;2.693137659911818E+001;
1.333710606292122E+010;-4.081853794196776E+001;7.263072440757007E+001;
1.384643487651927E+010;-4.369845618786074E+001;1.005169212159403E+002;
1.437521437448148E+010;-4.278578445031422E+001;-1.514905788719340E+002;
1.492418735617858E+010;-4.097310771828041E+001;-1.783022539825108E+002;
1.549412498763898E+010;-4.650293348841479E+001;-1.452271392890960E+002;
1.608582788483898E+010;-4.174400815113538E+001;1.727807172631379E+002;
1.670012723836252E+010;-4.210342669311889E+001;8.090849970166647E+001;
1.733788598101053E+010;-4.107063080040840E+001;-9.007458877739909E+001;
1.800000000000000E+010;-4.298702397084823E+001;1.288071523701586E+002;
