# Version 1.00
#
freq[Hz];db:Trc1_S21;ang:Trc1_S21;
1.000000000000000E+007;-8.535579994136915E-002;-6.824820093066056E+001;
1.038188855303029E+007;1.421574356056737E-001;-7.004918318240497E+001;
1.077836099275414E+007;-9.568353315479190E-002;-7.483646376218944E+001;
1.118997426111024E+007;-2.196675126885233E-001;-7.433763486499930E+001;
1.161730656901240E+007;-4.786699847011957E-001;-7.758426414971599E+001;
1.206095820858735E+007;-3.935914937235031E-001;-8.061013534043778E+001;
1.252155239643097E+007;1.314894413182927E-001;-8.579379008650200E+001;
1.299973614906757E+007;-6.406699890060774E-002;-9.126528779827468E+001;
1.349618119184187E+007;9.048384669731291E-002;-9.279561901287481E+001;
1.401158490252058E+007;-2.890280616219750E-001;-9.490334714859777E+001;
1.454667129092905E+007;-5.305246240020904E-002;-9.753518439191741E+001;
1.510219201599907E+007;-2.730501087221728E-001;-1.032351907286248E+002;
1.567892744165662E+007;-3.722618932975874E-001;-1.074460872634841E+002;
1.627768773303274E+007;-2.687024096819066E-001;-1.075491771815859E+002;
1.689931399453742E+007;-1.697388164775029E-001;-1.135503218283717E+002;
1.754467945139527E+007;-1.650570475667169E-001;-1.205488055484145E+002;
1.821469067630263E+007;-1.000976654155568E-001;-1.216088396241826E+002;
1.891028886292939E+007;-3.151909964740402E-001;-1.272819718357248E+002;
1.963245114805428E+007;-2.446796477587581E-001;-1.333182730393440E+002;
2.038219198419111E+007;-8.406036707886222E-002;-1.395982829114989E+002;
2.116056456463395E+007;-1.555320124812053E-001;-1.437413740108704E+002;
2.196866230292316E+007;1.724564935832948E-002;-1.493468333978288E+002;
2.280762036881060E+007;-4.874418700545969E-001;-1.562465287599721E+002;
2.367861728288153E+007;-8.971309786347402E-002;-1.603264917083102E+002;
2.458287657207330E+007;-1.669439498248120E-001;-1.666612411630120E+002;
2.552166848841643E+007;-2.840967934055707E-001;-1.740118830729420E+002;
2.649631179341245E+007;-2.485063744350764E-001;-1.793115594736519E+002;
2.750817561055502E+007;-2.552318913414404E-001;1.733715468371629E+002;
2.855868134859682E+007;-1.461887657570869E-001;1.657025414793695E+002;
2.964930469826371E+007;-3.379966487684028E-001;1.582026618806194E+002;
3.078157770522112E+007;-2.804725216344495E-001;1.501571411704234E+002;
3.195709092220476E+007;-2.955334543426581E-001;1.440126357905457E+002;
3.317749564333858E+007;-3.200141841948470E-001;1.343855993934203E+002;
3.444450622377892E+007;-3.876199522114026E-001;1.256962585274041E+002;
3.575990248794310E+007;-2.816195114397121E-001;1.172541828271045E+002;
3.712553222970559E+007;-1.652156079184899E-001;1.073791025590954E+002;
3.854331380807376E+007;-2.585495901246265E-001;9.876704049122213E+001;
4.001523884198953E+007;-2.654732891328193E-001;8.905183228012008E+001;
4.154337500804243E+007;-1.605881987153469E-001;7.767607735650999E+001;
4.312986894502404E+007;-2.969856835291248E-001;6.783755939484615E+001;
4.477694926940417E+007;-3.665643144335565E-001;5.523838402931989E+001;
4.648692970596453E+007;-3.158609413086566E-001;4.444083741455053E+001;
4.826221233798770E+007;-3.587348413576912E-001;3.272354814401453E+001;
5.010529098156718E+007;-3.962851962347638E-001;2.047738364250058E+001;
5.201875468877842E+007;-3.728039096787253E-001;6.815642466375730E+000;
5.400529138463195E+007;-3.528546613207294E-001;-6.563152826922226E+000;
5.606769164291760E+007;-2.839869672382669E-001;-2.111332431561876E+001;
5.820885260624383E+007;-3.601040725094136E-001;-3.462594319943182E+001;
6.043178205577903E+007;-4.527887397904034E-001;-5.015162074799940E+001;
6.273960263641138E+007;-3.490485982409512E-001;-6.592965205851765E+001;
6.513555624326284E+007;-3.597366627891418E-001;-8.176261655414750E+001;
6.762300857571912E+007;-3.336129976652908E-001;-9.821652981671960E+001;
7.020545386537276E+007;-3.310764097204632E-001;-1.160893623634433E+002;
7.288651978452097E+007;-3.446194659813864E-001;-1.340061369052765E+002;
7.566997254211341E+007;-3.652979502769154E-001;-1.527661474963897E+002;
7.855972217430838E+007;-3.908465476345430E-001;-1.723236063457113E+002;
8.155982803706922E+007;-3.692734787769700E-001;1.669151861702898E+002;
8.467450450851679E+007;-3.766487526596991E-001;1.462245503470693E+002;
8.790812690904823E+007;-4.068174808829247E-001;1.245247491748242E+002;
9.126523764753820E+007;-4.443486490921609E-001;1.015116841980755E+002;
9.475055260225661E+007;-3.805821049783637E-001;7.807600732318551E+001;
9.836896774546625E+007;-4.233281528415250E-001;5.305643238599296E+001;
1.021255660210062E+008;-4.475798215819270E-001;2.822085867712495E+001;
1.060256244845224E+008;-4.933437154081703E-001;1.756909745490469E+000;
1.100746217163751E+008;-4.472904936623641E-001;-2.579839672074270E+001;
1.142782455176374E+008;-4.730670859424001E-001;-5.403906331028927E+001;
1.186424008999945E+008;-4.933014145047991E-001;-8.385951435254893E+001;
1.231732183807684E+008;-4.956983252688997E-001;-1.141861041035802E+002;
1.278770625947199E+008;-4.643953473617029E-001;-1.462235063904295E+002;
1.327605412347261E+008;-4.929465422125623E-001;-1.791692081643649E+002;
1.378305143338909E+008;-5.348828141227136E-001;1.467094958024343E+002;
1.430941039021300E+008;-5.526242275627002E-001;1.109456072931868E+002;
1.485587039307650E+008;-5.476913338158664E-001;7.422061595149417E+001;
1.542319907791826E+008;-5.481730417160211E-001;3.571169817479363E+001;
1.601219339581469E+008;-5.380951251299125E-001;-4.042720785509101E+000;
1.662368073249158E+008;-5.709169772783287E-001;-4.538736851142372E+001;
1.725852007058845E+008;-5.467500992489467E-001;-8.841035624045173E+001;
1.791760319630858E+008;-5.803899068783069E-001;-1.329654669300688E+002;
1.860185595214950E+008;-5.837094540379496E-001;-1.792108278845129E+002;
1.931223953747393E+008;-6.316960455490721E-001;1.328959133588267E+002;
2.004975185874796E+008;-6.226281744334274E-001;8.295456818778817E+001;
2.081542893134333E+008;-6.210888060500781E-001;3.118459801443402E+001;
2.161034633487289E+008;-6.492862948549734E-001;-2.252797111482143E+001;
2.243562072410370E+008;-6.448756564961566E-001;-7.826834467303995E+001;
2.329241139757013E+008;-6.987042764149472E-001;-1.361875294271213E+002;
2.418192192609057E+008;-6.966358407296491E-001;1.637341733541024E+002;
2.510540184347519E+008;-7.067799726745369E-001;1.013921622397476E+002;
2.606414840180006E+008;-7.214636868057108E-001;3.646942587181749E+001;
2.705950839371309E+008;-7.224428763530729E-001;-3.063959338761365E+001;
2.809288004433170E+008;-7.653128559556514E-001;-1.005897257762306E+002;
2.916571497539004E+008;-7.647472917904021E-001;-1.730443368658892E+002;
3.027952024439460E+008;-7.694027411872610E-001;1.116559266379916E+002;
3.143586046165293E+008;-7.878084947239642E-001;3.354846368465873E+001;
3.263635998814921E+008;-8.108450371029649E-001;-4.756826423019795E+001;
3.388270521735421E+008;-8.006660598920889E-001;-1.317928691812778E+002;
3.517664694417494E+008;-8.255222926416006E-001;1.407869643655158E+002;
3.652000282437178E+008;-8.564946931212863E-001;5.001577931992906E+001;
3.791465992789793E+008;-8.622474042967424E-001;-4.407257659637072E+001;
3.936257738974798E+008;-8.811895059125717E-001;-1.419976957832068E+002;
4.086578916203936E+008;-8.941368148976194E-001;1.164523628248882E+002;
4.242640687119258E+008;-9.165081585369456E-001;1.101863726030140E+001;
4.404662278422399E+008;-9.271203106275631E-001;-9.842487226891566E+001;
4.572871288831783E+008;-9.522657446939943E-001;1.480295619824776E+002;
4.747504008800356E+008;-9.715954076428002E-001;2.999805775206832E+001;
4.928805752442984E+008;-9.814761788373446E-001;-9.252267256308207E+001;
5.117031202139767E+008;-1.010009035438207E+000;1.404835387444138E+002;
5.312444766299368E+008;-1.025018236914964E+000;8.500809926641251E+000;
5.515320950784909E+008;-1.048801986566144E+000;-1.286232948899850E+002;
5.725944744524199E+008;-1.058829246639486E+000;8.921947522036410E+001;
5.944612019845973E+008;-1.087725810130106E+000;-5.848891130920594E+001;
6.171629948104519E+008;-1.116611862307107E+000;1.482527587348692E+002;
6.407317431176524E+008;-1.122413626486394E+000;-1.095418119866497E+001;
6.652005549436301E+008;-1.158141397880457E+000;-1.762565139034366E+002;
6.906038026838671E+008;-1.169650037797672E+000;1.213381832107991E+001;
7.169771713762831E+008;-1.191598899888842E+000;-1.659700950144572E+002;
7.443577088295471E+008;-1.220930474515186E+000;9.168133226566759E+000;
7.727838776657330E+008;-1.233742154382763E+000;1.771507974100909E+002;
8.022956093504235E+008;-1.259765112201762E+000;-2.208393589757381E+001;
8.329343602861624E+008;-1.279633134751754E+000;1.311329523852600E+002;
8.647431700480518E+008;-1.309087112775103E+000;-8.377242666307828E+001;
8.977667218432996E+008;-1.328662015094641E+000;5.320964115661860E+001;
9.320514052796482E+008;-1.378940591374624E+000;-1.783507876402900E+002;
9.676453815308577E+008;-1.384032062647931E+000;-5.868584451049919E+001;
1.004598650990784E+009;-1.410383721710451E+000;5.194753494890442E+001;
1.042963123511089E+009;-1.436812774207223E+000;1.528279603155393E+002;
1.082792691321250E+009;-1.456893576192388E+000;-1.161410508517953E+002;
1.124143304733295E+009;-1.492984801360903E+000;-3.535634076750898E+001;
1.167073050737623E+009;-1.514169287607059E+000;3.470653412545826E+001;
1.211642234600307E+009;-1.539465531115821E+000;9.379882366567898E+001;
1.257913464576497E+009;-1.574605016577397E+000;1.413063625959658E+002;
1.305951739858941E+009;-1.606538874812193E+000;1.769441255369363E+002;
1.355824541885154E+009;-1.635488643199000E+000;-1.598225589922569E+002;
1.407601929131501E+009;-1.655930434527832E+000;-1.493615920617745E+002;
1.461356635527369E+009;-1.691036448850846E+000;-1.523060404926899E+002;
1.517164172627645E+009;-1.721241054725197E+000;-1.691682755895339E+002;
1.575102935687062E+009;-1.754758356391206E+000;1.595935937936241E+002;
1.635254313785392E+009;-1.786887764320054E+000;1.134563904178020E+002;
1.697702804158197E+009;-1.816303442252018E+000;5.180000596657677E+001;
1.762536130893741E+009;-1.859469610551549E+000;-2.587743887139864E+001;
1.829845368162803E+009;-1.905710004610891E+000;-1.202075048345928E+002;
1.899725068154491E+009;-1.934844121513610E+000;1.282122411277956E+002;
1.972273393897780E+009;-1.965976320265323E+000;-1.898193112361975E+000;
2.047592257155356E+009;-2.009561164872739E+000;-1.504022860688553E+002;
2.125787461583465E+009;-2.046243649877422E+000;4.162608077448235E+001;
2.206968851358869E+009;-2.104794560407912E+000;-1.464807118824285E+002;
2.291250465481706E+009;-2.154285846007866E+000;4.768649520128339E+000;
2.378750697970985E+009;-2.161812495440331E+000;1.339480580614028E+002;
2.469592464177779E+009;-2.207498320642649E+000;-1.194098608953564E+002;
2.563903373449715E+009;-2.269883686541278E+000;-3.557997998328828E+001;
2.661815908389335E+009;-2.302520690845842E+000;2.338678064512216E+001;
2.763467610958116E+009;-2.331193206380594E+000;5.681206114878569E+001;
2.869001275687604E+009;-2.383697344311790E+000;6.399441728381783E+001;
2.978565150269043E+009;-2.447385398209267E+000;4.490086702318245E+001;
3.092313143803313E+009;-2.464857037863010E+000;-3.379159660926359E+000;
3.210405043003673E+009;-2.549867509480671E+000;-8.100829743678894E+001;
3.333006736655056E+009;-2.638850634239989E+000;1.719770115933889E+002;
3.460290448645197E+009;-2.662462090066588E+000;3.248853811570148E+001;
3.592434979894962E+009;-2.703101528778770E+000;-1.392951200610536E+002;
3.729625959527711E+009;-2.734173747615303E+000;1.405667835770767E+001;
3.872056105630537E+009;-2.845877608000354E+000;1.331895447203456E+002;
4.019925495973672E+009;-2.845382355958457E+000;-1.455420452204215E+002;
4.173441849068368E+009;-2.873115093190572E+000;-1.020409360836911E+002;
4.332820815958047E+009;-3.092369550764468E+000;-9.763904089320634E+001;
4.498286283152621E+009;-3.001008238301881E+000;-1.348418932152215E+002;
4.670070687131537E+009;-3.163850242147015E+000;1.457605655796494E+002;
4.848415340857322E+009;-3.202861693718063E+000;2.181508293824065E+001;
5.033570772758309E+009;-3.179443628718852E+000;-1.484159657880714E+002;
5.225797078656734E+009;-3.237119881527409E+000;-6.171483144232228E+000;
5.425364287136548E+009;-3.359272950348240E+000;8.697562121529636E+001;
5.632552738864227E+009;-3.370664582808527E+000;1.274936529016369E+002;
5.847653480395394E+009;-3.430653922080014E+000;1.158196464236685E+002;
6.070968673020469E+009;-3.546745918786525E+000;4.812989896740759E+001;
6.302812017223670E+009;-3.605575456879731E+000;-7.729289593824446E+001;
6.543509193351618E+009;-3.698156188564627E+000;9.739560845538892E+001;
6.793398319110564E+009;-3.836937329813866E+000;-1.497220432626338E+002;
7.052830424534919E+009;-3.969134459972384E+000;-1.019265515103120E+002;
7.322169945094285E+009;-4.122036899520928E+000;-1.201100428180432E+002;
7.601795233631680E+009;-4.239624477285481E+000;1.525358938072876E+002;
7.892099091852097E+009;-4.309734945173437E+000;-6.098715668367859E+000;
8.193489322108005E+009;-4.400837026722754E+000;1.182272044396989E+002;
8.506389300256902E+009;-4.444682883281492E+000;1.651065217752810E+002;
8.831238570395649E+009;-4.404447028189990E+000;1.313544388827012E+002;
9.168493462307018E+009;-4.444619848503119E+000;1.317479411676047E+001;
9.518627732485830E+009;-4.763182867821881E+000;1.682881605524660E+002;
9.882133229645132E+009;-5.125502043854141E+000;-1.262389219217400E+002;
1.025952058563731E+010;-4.903461776502295E+000;-1.533029647137287E+002;
1.065131993276066E+010;-4.840029890396797E+000;8.004190292198076E+001;
1.105808164845913E+010;-5.465922485080561E+000;-1.487611916168303E+002;
1.148037712846121E+010;-5.447338976773667E+000;-1.169999966587766E+002;
1.191879958944423E+010;-5.407213531487241E+000;1.606860709870911E+002;
1.237396490235132E+010;-5.382663322637919E+000;-3.297570604098936E+001;
1.284651245753197E+010;-6.059102520785219E+000;1.372946386988511E+001;
1.333710606292122E+010;-5.603019745774919E+000;-6.042968963858069E+001;
1.384643487651927E+010;-6.080815738845399E+000;9.746310692836835E+001;
1.437521437448148E+010;-5.944412093511867E+000;1.256131585349733E+002;
1.492418735617858E+010;-6.227841604456598E+000;1.417284933754983E+001;
1.549412498763898E+010;-6.249006335098202E+000;1.194918501965044E+002;
1.608582788483898E+010;-6.174443286444445E+000;7.562330994247854E+001;
1.670012723836252E+010;-7.252820868868879E+000;-1.178038096379637E+002;
1.733788598101053E+010;-6.891580208823965E+000;-1.164045507309000E+002;
1.800000000000000E+010;-7.038306653860310E+000;7.864571182570684E+001;
