# Version 1.00
#
freq[Hz];db:Trc1_S21;ang:Trc1_S21;
1.000000000000000E+007;8.293776288800503E-002;-5.735276572668541E+001;
1.038188855303029E+007;1.790411056976101E-001;-5.800821468904096E+001;
1.077836099275414E+007;-5.380552066578825E-002;-6.240399957028770E+001;
1.118997426111024E+007;4.965499259607017E-002;-6.140597434948936E+001;
1.161730656901240E+007;-2.842613766711888E-001;-6.403248623466850E+001;
1.206095820858735E+007;-2.276340244598012E-001;-6.648347717871296E+001;
1.252155239643097E+007;2.753889783760661E-001;-7.065646455244483E+001;
1.299973614906757E+007;7.018586736228002E-002;-7.588090734131784E+001;
1.349618119184187E+007;2.625001769249177E-001;-7.688891734115498E+001;
1.401158490252058E+007;-1.099867146852919E-001;-7.859994147592995E+001;
1.454667129092905E+007;9.060734788712593E-002;-8.030286337817971E+001;
1.510219201599907E+007;-1.342317476186452E-001;-8.512213251589287E+001;
1.567892744165662E+007;-3.376120401057514E-001;-8.935149628919571E+001;
1.627768773303274E+007;-1.659765288156315E-001;-8.786901786217646E+001;
1.689931399453742E+007;-7.614107953870651E-003;-9.329906863652941E+001;
1.754467945139527E+007;-8.070361594539878E-002;-9.952689112863648E+001;
1.821469067630263E+007;-5.989906536002096E-004;-9.959085176607931E+001;
1.891028886292939E+007;-2.115940046345775E-001;-1.048033353511728E+002;
1.963245114805428E+007;-1.196086829640248E-001;-1.097219093584513E+002;
2.038219198419111E+007;-1.095099976877456E-002;-1.150991480635334E+002;
2.116056456463395E+007;-3.557804551749367E-003;-1.182480588250423E+002;
2.196866230292316E+007;9.088829969050410E-002;-1.229858848417286E+002;
2.280762036881060E+007;-3.907321555631840E-001;-1.286500955002835E+002;
2.367861728288153E+007;-1.911413785604453E-002;-1.318577550768765E+002;
2.458287657207330E+007;-4.270866187978516E-002;-1.368638755548319E+002;
2.552166848841643E+007;-1.827002631882378E-001;-1.432829757488435E+002;
2.649631179341245E+007;-1.587295017296732E-001;-1.473051779195245E+002;
2.750817561055502E+007;-1.684833795348104E-001;-1.531845627688348E+002;
2.855868134859682E+007;-4.872491003968261E-002;-1.600407768935464E+002;
2.964930469826371E+007;-2.100813812539265E-001;-1.658113105655674E+002;
3.078157770522112E+007;-1.786549679646795E-001;-1.724177603639868E+002;
3.195709092220476E+007;-1.910849649523480E-001;-1.774789015545523E+002;
3.317749564333858E+007;-2.028966762363848E-001;1.744820400773633E+002;
3.444450622377892E+007;-2.660430526279976E-001;1.675998010826581E+002;
3.575990248794310E+007;-1.778284199133146E-001;1.607260954298901E+002;
3.712553222970559E+007;-6.471840954726425E-002;1.525478131482069E+002;
3.854331380807376E+007;-1.167893552059610E-001;1.458084504584312E+002;
4.001523884198953E+007;-1.551515929687951E-001;1.377435059299823E+002;
4.154337500804243E+007;-2.194792261278614E-002;1.280674608869945E+002;
4.312986894502404E+007;-1.959416008908964E-001;1.204057616368841E+002;
4.477694926940417E+007;-2.429311353402469E-001;1.097755416700450E+002;
4.648692970596453E+007;-2.063236586015627E-001;1.009201189564302E+002;
4.826221233798770E+007;-2.489199250434222E-001;9.142292549553012E+001;
5.010529098156718E+007;-2.605896919566852E-001;8.138822054140108E+001;
5.201875468877842E+007;-2.488224923424393E-001;7.020717390911730E+001;
5.400529138463195E+007;-2.292840623628561E-001;5.916902493997077E+001;
5.606769164291760E+007;-1.392757523474247E-001;4.711978128943235E+001;
5.820885260624383E+007;-2.274051238257930E-001;3.618350693567324E+001;
6.043178205577903E+007;-3.250062204889848E-001;2.339594058948910E+001;
6.273960263641138E+007;-2.057070009276688E-001;1.039201328859424E+001;
6.513555624326284E+007;-2.450433681146954E-001;-2.490131407485356E+000;
6.762300857571912E+007;-2.182698989921719E-001;-1.585256756887187E+001;
7.020545386537276E+007;-1.881002428725668E-001;-3.063184697709297E+001;
7.288651978452097E+007;-2.312192181392465E-001;-4.538944931528974E+001;
7.566997254211341E+007;-2.402914229050044E-001;-6.061467214447072E+001;
7.855972217430838E+007;-2.661493643728194E-001;-7.667505718287215E+001;
8.155982803706922E+007;-2.396365935285346E-001;-9.375418454944332E+001;
8.467450450851679E+007;-2.495005550031508E-001;-1.107225129653592E+002;
8.790812690904823E+007;-2.676407701048825E-001;-1.284528979750766E+002;
9.126523764753820E+007;-3.111239971357885E-001;-1.473933822593619E+002;
9.475055260225661E+007;-2.429085833458235E-001;-1.665667027717612E+002;
9.836896774546625E+007;-2.867148219801270E-001;1.727521058974325E+002;
1.021255660210062E+008;-3.081013369574935E-001;1.523975371531305E+002;
1.060256244845224E+008;-3.568505202602727E-001;1.307507350413635E+002;
1.100746217163751E+008;-3.290911224089368E-001;1.080666897618856E+002;
1.142782455176374E+008;-3.567206409110164E-001;8.509123699346152E+001;
1.186424008999945E+008;-3.650017696057855E-001;6.047616742550124E+001;
1.231732183807684E+008;-3.659040898337631E-001;3.577171695055547E+001;
1.278770625947199E+008;-3.279790113665842E-001;9.465782960596702E+000;
1.327605412347261E+008;-3.544770236973399E-001;-1.752326879834733E+001;
1.378305143338909E+008;-3.898027470292000E-001;-4.558126741507147E+001;
1.430941039021300E+008;-4.067035319933310E-001;-7.491431592552799E+001;
1.485587039307650E+008;-4.036005049232390E-001;-1.049780842610415E+002;
1.542319907791826E+008;-4.070460466494228E-001;-1.366077496634654E+002;
1.601219339581469E+008;-3.909081325029989E-001;-1.691662146971391E+002;
1.662368073249158E+008;-4.263193314665420E-001;1.569446873488500E+002;
1.725852007058845E+008;-3.957722157251649E-001;1.216602621180757E+002;
1.791760319630858E+008;-4.231599657473307E-001;8.512146537140956E+001;
1.860185595214950E+008;-4.321315281519130E-001;4.719362454015106E+001;
1.931223953747393E+008;-4.791339582884325E-001;7.906049858599245E+000;
2.004975185874796E+008;-4.717135878985201E-001;-3.307566194281856E+001;
2.081542893134333E+008;-4.703575106777133E-001;-7.547221705145580E+001;
2.161034633487289E+008;-4.902011120549259E-001;-1.195133207703953E+002;
2.243562072410370E+008;-4.807084368240870E-001;-1.652831693027159E+002;
2.329241139757013E+008;-5.333230522268841E-001;1.472162557065068E+002;
2.418192192609057E+008;-5.304059930899975E-001;9.790228673490337E+001;
2.510540184347519E+008;-5.465122944284417E-001;4.682588205321948E+001;
2.606414840180006E+008;-5.577217252255238E-001;-6.492815706976375E+000;
2.705950839371309E+008;-5.717740168547117E-001;-6.152099370640263E+001;
2.809288004433170E+008;-6.275660550014371E-001;-1.187729575722225E+002;
2.916571497539004E+008;-6.121962207208277E-001;-1.780439715340341E+002;
3.027952024439460E+008;-5.959408895697151E-001;1.201938576273978E+002;
3.143586046165293E+008;-5.997092820033317E-001;5.603862362511468E+001;
3.263635998814921E+008;-6.296051803496559E-001;-1.053964347369136E+001;
3.388270521735421E+008;-6.249535659645772E-001;-7.963333437186141E+001;
3.517664694417494E+008;-6.479052224667760E-001;-1.513250678364500E+002;
3.652000282437178E+008;-6.789174131430923E-001;1.342219766832136E+002;
3.791465992789793E+008;-6.841325632073396E-001;5.706727205532697E+001;
3.936257738974798E+008;-7.089169809136318E-001;-2.327222954545871E+001;
4.086578916203936E+008;-7.291996939388442E-001;-1.064347326702069E+002;
4.242640687119258E+008;-7.345953075803627E-001;1.672144161787698E+002;
4.404662278422399E+008;-7.403745940673225E-001;7.723892710670617E+001;
4.572871288831783E+008;-7.700850780880585E-001;-1.585213112263856E+001;
4.747504008800356E+008;-7.819944339673312E-001;-1.125772099586341E+002;
4.928805752442984E+008;-7.882867762544416E-001;1.469448101218155E+002;
5.117031202139767E+008;-8.164432566955094E-001;4.266168704967937E+001;
5.312444766299368E+008;-8.420164797903725E-001;-6.564054136719129E+001;
5.515320950784909E+008;-8.680890435946169E-001;-1.780280257481907E+002;
5.725944744524199E+008;-8.926446639113083E-001;6.540484979444435E+001;
5.944612019845973E+008;-9.023301924929573E-001;-5.563762338449877E+001;
6.171629948104519E+008;-9.172171159241711E-001;1.785375334209474E+002;
6.407317431176524E+008;-9.438552707039599E-001;4.797222540144374E+001;
6.652005549436301E+008;-9.691489371312115E-001;-8.745975232703029E+001;
6.906038026838671E+008;-9.795955991965450E-001;1.318019794241210E+002;
7.169771713762831E+008;-1.012346774256394E+000;-1.426229624427962E+001;
7.443577088295471E+008;-1.046718481658734E+000;-1.658434873584193E+002;
7.727838776657330E+008;-1.068654571572132E+000;3.670090825764661E+001;
8.022956093504235E+008;-1.091396027143348E+000;-1.268071319083053E+002;
8.329343602861624E+008;-1.114810577002386E+000;6.351777163201357E+001;
8.647431700480518E+008;-1.141706394505773E+000;-1.125947978176752E+002;
8.977667218432996E+008;-1.186730118747146E+000;6.457188715945395E+001;
9.320514052796482E+008;-1.203046297134106E+000;-1.253216561400593E+002;
9.676453815308577E+008;-1.249616900978227E+000;3.756033203518199E+001;
1.004598650990784E+009;-1.262006548427632E+000;-1.669001219439351E+002;
1.042963123511089E+009;-1.288665538237044E+000;-1.947487690101299E+001;
1.082792691321250E+009;-1.334651344946010E+000;1.201484817188243E+002;
1.124143304733295E+009;-1.377769027077975E+000;-1.087619542585581E+002;
1.167073050737623E+009;-1.408995195696381E+000;1.358912146701626E+001;
1.211642234600307E+009;-1.440920182363989E+000;1.267100678250856E+002;
1.257913464576497E+009;-1.511223952261343E+000;-1.293850809708008E+002;
1.305951739858941E+009;-1.541161247576132E+000;-3.531516670083466E+001;
1.355824541885154E+009;-1.594094859515944E+000;4.852876714251593E+001;
1.407601929131501E+009;-1.676080896311837E+000;1.220302119920391E+002;
1.461356635527369E+009;-1.673029175263678E+000;-1.754400387389790E+002;
1.517164172627645E+009;-1.745153604194331E+000;-1.244212144079415E+002;
1.575102935687062E+009;-1.786283314733766E+000;-8.488142151038372E+001;
1.635254313785392E+009;-1.823054008568655E+000;-5.782991607001395E+001;
1.697702804158197E+009;-1.900339420049661E+000;-4.333458251096912E+001;
1.762536130893741E+009;-1.928472394012242E+000;-4.216239564661466E+001;
1.829845368162803E+009;-1.968571943254040E+000;-5.458162474655467E+001;
1.899725068154491E+009;-2.007475003893954E+000;-8.137342271159868E+001;
1.972273393897780E+009;-2.041303447591958E+000;-1.225372497194803E+002;
2.047592257155356E+009;-2.064220984927835E+000;-1.792425375031100E+002;
2.125787461583465E+009;-2.089513289670057E+000;1.081682895607093E+002;
2.206968851358869E+009;-2.100518879538508E+000;1.888030731587512E+001;
2.291250465481706E+009;-2.111001511678778E+000;-8.744131597980388E+001;
2.378750697970985E+009;-2.158791112228975E+000;1.482933470411555E+002;
2.469592464177779E+009;-2.165879518610188E+000;5.464155430458836E+000;
2.563903373449715E+009;-2.233470428001007E+000;-1.557254271628468E+002;
2.661815908389335E+009;-2.251846184219899E+000;2.266390840962940E+001;
2.763467610958116E+009;-2.197297210233384E+000;1.791799434780309E+002;
2.869001275687604E+009;-2.195533619764301E+000;-4.510946666427954E+001;
2.978565150269043E+009;-2.155003223255229E+000;6.892733227142885E+001;
3.092313143803313E+009;-2.401775939593255E+000;1.570766767959875E+002;
3.210405043003673E+009;-2.575538208721600E+000;-1.334083510820562E+002;
3.333006736655056E+009;-2.400883966185553E+000;-9.190530707809818E+001;
3.460290448645197E+009;-2.397269098899574E+000;-7.714705816167168E+001;
3.592434979894962E+009;-2.356310873242360E+000;-8.833191602898711E+001;
3.729625959527711E+009;-2.349230034239130E+000;-1.282848932569170E+002;
3.872056105630537E+009;-2.384826202265272E+000;1.631101533051811E+002;
4.019925495973672E+009;-2.454328689889027E+000;6.467158845479257E+001;
4.173441849068368E+009;-2.481274936938992E+000;-6.541770458778936E+001;
4.332820815958047E+009;-2.590684889119752E+000;1.318909538109715E+002;
4.498286283152621E+009;-2.788978909313882E+000;-6.443853007405888E+001;
4.670070687131537E+009;-2.660637237952923E+000;6.554164186974245E+001;
4.848415340857322E+009;-2.751187055488068E+000;1.578321961868134E+002;
5.033570772758309E+009;-2.821717237906706E+000;-1.467986410401385E+002;
5.225797078656734E+009;-2.923765304085114E+000;-1.317146228118046E+002;
5.425364287136548E+009;-3.130434333003476E+000;-1.565679110464284E+002;
5.632552738864227E+009;-3.133812665196894E+000;1.366677614182849E+002;
5.847653480395394E+009;-3.492153647471704E+000;2.533873584730635E+001;
6.070968673020469E+009;-3.495781074092357E+000;-1.308837819388638E+002;
6.302812017223670E+009;-3.856939068704062E+000;2.717684334541533E+001;
6.543509193351618E+009;-3.579153370095368E+000;1.347753203976917E+002;
6.793398319110564E+009;-3.759551537709414E+000;-1.692661604398525E+002;
7.052830424534919E+009;-4.124926272524799E+000;-1.643978113584722E+002;
7.322169945094285E+009;-4.541652991775490E+000;1.460377381391500E+002;
7.601795233631680E+009;-4.193169997880654E+000;4.207296549780014E+001;
7.892099091852097E+009;-4.035433014966475E+000;-1.261096381198062E+002;
8.193489322108005E+009;-4.232754820415400E+000;2.946624309081813E+000;
8.506389300256902E+009;-4.141003023980328E+000;7.208080409908469E+001;
8.831238570395649E+009;-4.004800523054018E+000;7.163954722039688E+001;
9.168493462307018E+009;-4.328279196893906E+000;-4.889052039840615E-001;
9.518627732485830E+009;-4.821803843948112E+000;-1.316499273346748E+002;
9.882133229645132E+009;-5.034309407797178E+000;1.197242728148664E+001;
1.025952058563731E+010;-4.789153446251333E+000;8.409687139660480E+001;
1.065131993276066E+010;-5.200555970041592E+000;6.994391697505238E+001;
1.105808164845913E+010;-6.377121352577908E+000;-1.990300148985122E+001;
1.148037712846121E+010;-5.545571878252263E+000;1.672928599657936E+002;
1.191879958944423E+010;-6.493840263332210E+000;-1.057952270388136E+002;
1.237396490235132E+010;-6.564368244677283E+000;-9.874696618177643E+001;
1.284651245753197E+010;-5.192210425049366E+000;1.570589112952262E+002;
1.333710606292122E+010;-5.809327023486564E+000;-4.429085882102356E+001;
1.384643487651927E+010;-5.968862029721627E+000;1.513840407841093E+001;
1.437521437448148E+010;-5.999121110671898E+000;-4.033343403257297E+001;
1.492418735617858E+010;-7.675744981810365E+000;1.579197689823931E+002;
1.549412498763898E+010;-6.393614375140590E+000;-1.219067686465268E+002;
1.608582788483898E+010;-7.496344568825502E+000;-1.662355634155943E+002;
1.670012723836252E+010;-6.723634337229878E+000;2.916449552477721E+001;
1.733788598101053E+010;-6.697426267393389E+000;7.634954067794560E+001;
1.800000000000000E+010;-7.331248310399674E+000;-3.234115943828092E+000;
