# Version 1.00
#
freq[Hz];db:Trc1_S21;ang:Trc1_S21;
1.000000000000000E+007;-1.190540463933038E-001;-5.061936063927392E+001;
1.038188855303029E+007;-1.446151302209142E-001;-5.246320241154788E+001;
1.077836099275414E+007;-8.534586532026117E-002;-5.585872304267203E+001;
1.118997426111024E+007;-1.054350298742182E-001;-5.808330156518786E+001;
1.161730656901240E+007;7.469266206026475E-002;-6.075720484549067E+001;
1.206095820858735E+007;-1.434757715247099E-001;-6.352152682187658E+001;
1.252155239643097E+007;-1.995265142113273E-001;-6.534468783712184E+001;
1.299973614906757E+007;-9.784782325089454E-002;-6.699843578367873E+001;
1.349618119184187E+007;-1.238232340046270E-001;-6.973125657832890E+001;
1.401158490252058E+007;-1.277139754813352E-001;-7.220741959585388E+001;
1.454667129092905E+007;-1.526829899462678E-001;-7.453515244042067E+001;
1.510219201599907E+007;-1.665565815035506E-001;-7.793595037405687E+001;
1.567892744165662E+007;-1.422500819216694E-001;-8.163735730919196E+001;
1.627768773303274E+007;-1.414748953881884E-001;-8.417903371666880E+001;
1.689931399453742E+007;-9.571164671495319E-002;-8.685734858900686E+001;
1.754467945139527E+007;-2.002242579843591E-001;-9.056416339315450E+001;
1.821469067630263E+007;-1.397082492761599E-001;-9.405111988484988E+001;
1.891028886292939E+007;-1.870368540993309E-001;-9.796321230496643E+001;
1.963245114805428E+007;-1.235307265995256E-001;-1.009370485933237E+002;
2.038219198419111E+007;-1.799306451323845E-001;-1.052371982341011E+002;
2.116056456463395E+007;-9.820184127209898E-002;-1.094296676338437E+002;
2.196866230292316E+007;-1.174383032017709E-001;-1.133515137008301E+002;
2.280762036881060E+007;-2.009450067178820E-001;-1.171607467388534E+002;
2.367861728288153E+007;-1.218627055498595E-001;-1.218162120721719E+002;
2.458287657207330E+007;-1.612923204406266E-001;-1.265482190112474E+002;
2.552166848841643E+007;-2.125267483444147E-001;-1.316394299100811E+002;
2.649631179341245E+007;-1.397342086269117E-001;-1.366136171993583E+002;
2.750817561055502E+007;-1.708026322225228E-001;-1.417518657528799E+002;
2.855868134859682E+007;-1.048057468189335E-001;-1.472313071142078E+002;
2.964930469826371E+007;-1.494075499596824E-001;-1.528232097538578E+002;
3.078157770522112E+007;-1.542091033516741E-001;-1.586461364016607E+002;
3.195709092220476E+007;-1.566036856769251E-001;-1.645704901311597E+002;
3.317749564333858E+007;-1.780660135323242E-001;-1.707467667996701E+002;
3.444450622377892E+007;-1.202846986529721E-001;-1.772209606549405E+002;
3.575990248794310E+007;-2.218013538642768E-001;1.760770871359487E+002;
3.712553222970559E+007;-2.096934587201349E-001;1.693435938657013E+002;
3.854331380807376E+007;-2.270975708891078E-001;1.615356250580813E+002;
4.001523884198953E+007;-1.848452775374826E-001;1.541763756976113E+002;
4.154337500804243E+007;-1.977810522479452E-001;1.463129732056665E+002;
4.312986894502404E+007;-2.286767417044483E-001;1.382182409039061E+002;
4.477694926940417E+007;-2.105282139385280E-001;1.300026431859144E+002;
4.648692970596453E+007;-1.938138231692669E-001;1.211831473908629E+002;
4.826221233798770E+007;-1.950375065180348E-001;1.117588718315769E+002;
5.010529098156718E+007;-2.609938060934316E-001;1.022850585327843E+002;
5.201875468877842E+007;-2.049742924540096E-001;9.271357270161951E+001;
5.400529138463195E+007;-2.217599907700122E-001;8.236023110852096E+001;
5.606769164291760E+007;-1.945633693579552E-001;7.176626472907307E+001;
5.820885260624383E+007;-2.224463033869088E-001;6.090847630832231E+001;
6.043178205577903E+007;-2.316911785883317E-001;4.949232149972146E+001;
6.273960263641138E+007;-2.604026766555401E-001;3.762015343425835E+001;
6.513555624326284E+007;-2.473850131745115E-001;2.527493875726738E+001;
6.762300857571912E+007;-2.818022081180113E-001;1.250606877274816E+001;
7.020545386537276E+007;-2.540876335612327E-001;-5.679732714019251E-001;
7.288651978452097E+007;-2.629671094723798E-001;-1.434584419499982E+001;
7.566997254211341E+007;-2.592553910916758E-001;-2.853539777941226E+001;
7.855972217430838E+007;-2.762007371439564E-001;-4.324448951400997E+001;
8.155982803706922E+007;-2.902991568055400E-001;-5.889828162283401E+001;
8.467450450851679E+007;-2.769870017744369E-001;-7.465997332068322E+001;
8.790812690904823E+007;-2.902501406177396E-001;-9.136372414121188E+001;
9.126523764753820E+007;-3.008684941363093E-001;-1.084112190630085E+002;
9.475055260225661E+007;-3.069441919929208E-001;-1.263652688021993E+002;
9.836896774546625E+007;-3.290020020642770E-001;-1.448528176088393E+002;
1.021255660210062E+008;-3.192227986036497E-001;-1.640823163797810E+002;
1.060256244845224E+008;-3.319413016086031E-001;1.759834852584523E+002;
1.100746217163751E+008;-3.499161737878409E-001;1.551954875278585E+002;
1.142782455176374E+008;-3.409863550782460E-001;1.337345119593031E+002;
1.186424008999945E+008;-3.517755912346028E-001;1.112567233644690E+002;
1.231732183807684E+008;-3.486800103095374E-001;8.812315768013994E+001;
1.278770625947199E+008;-3.514718488369404E-001;6.412647698242749E+001;
1.327605412347261E+008;-3.652117384958449E-001;3.901621093282085E+001;
1.378305143338909E+008;-3.863830336913439E-001;1.304994232559438E+001;
1.430941039021300E+008;-3.859152274087485E-001;-1.388024769678677E+001;
1.485587039307650E+008;-3.970933014845909E-001;-4.180878407542398E+001;
1.542319907791826E+008;-3.890371111005238E-001;-7.085449234312560E+001;
1.601219339581469E+008;-4.009382930825203E-001;-1.010762653739736E+002;
1.662368073249158E+008;-4.142578418695045E-001;-1.323939613516538E+002;
1.725852007058845E+008;-4.261493782717589E-001;-1.648930704339493E+002;
1.791760319630858E+008;-4.440387076842501E-001;1.613988964750677E+002;
1.860185595214950E+008;-4.401217952585834E-001;1.263364644554428E+002;
1.931223953747393E+008;-4.525648662226605E-001;9.007934789395824E+001;
2.004975185874796E+008;-4.583038585535922E-001;5.226974282008855E+001;
2.081542893134333E+008;-4.619204571993303E-001;1.310245857590355E+001;
2.161034633487289E+008;-4.792905734232409E-001;-2.763225539646550E+001;
2.243562072410370E+008;-4.983923961065410E-001;-6.979442501248393E+001;
2.329241139757013E+008;-5.016502464805388E-001;-1.137149391527193E+002;
2.418192192609057E+008;-5.141558040213330E-001;-1.592001963871356E+002;
2.510540184347519E+008;-5.241260627205545E-001;1.535515514787627E+002;
2.606414840180006E+008;-5.325521571296634E-001;1.044953452204348E+002;
2.705950839371309E+008;-5.433367848859971E-001;5.357791402523869E+001;
2.809288004433170E+008;-5.507553826399450E-001;6.520723679955158E-001;
2.916571497539004E+008;-5.621942570887708E-001;-5.422299912592545E+001;
3.027952024439460E+008;-5.728291075099329E-001;-1.111850492588799E+002;
3.143586046165293E+008;-5.900145544849029E-001;-1.703501496627061E+002;
3.263635998814921E+008;-6.034241729765451E-001;1.282271880013541E+002;
3.388270521735421E+008;-6.124065339439929E-001;6.445062688219223E+001;
3.517664694417494E+008;-6.258266647700614E-001;-1.761294145061245E+000;
3.652000282437178E+008;-6.349304087310137E-001;-7.049722755936762E+001;
3.791465992789793E+008;-6.559884646721622E-001;-1.418293150453257E+002;
3.936257738974798E+008;-6.614301964894472E-001;1.441333902698450E+002;
4.086578916203936E+008;-6.738558607972449E-001;6.725420269603237E+001;
4.242640687119258E+008;-6.915127686242284E-001;-1.263518551293382E+001;
4.404662278422399E+008;-7.010624416169996E-001;-9.546822643845040E+001;
4.572871288831783E+008;-7.179444413858188E-001;1.784940862287070E+002;
4.747504008800356E+008;-7.295685662710386E-001;8.915587257528199E+001;
4.928805752442984E+008;-7.471327771232237E-001;-3.572256868242628E+000;
5.117031202139767E+008;-7.610795456414573E-001;-9.986770067502535E+001;
5.312444766299368E+008;-7.759277757438228E-001;1.601961469744026E+002;
5.515320950784909E+008;-7.961629913639857E-001;5.641047944822127E+001;
5.725944744524199E+008;-8.061664835160105E-001;-5.130982688060538E+001;
5.944612019845973E+008;-8.252988383424357E-001;-1.631350249823387E+002;
6.171629948104519E+008;-8.388483734551193E-001;8.075265425703839E+001;
6.407317431176524E+008;-8.575396551649095E-001;-3.978606525262188E+001;
6.652005549436301E+008;-8.792799280544256E-001;-1.649257903583182E+002;
6.906038026838671E+008;-8.929129761448444E-001;6.514517352899573E+001;
7.169771713762831E+008;-9.123660112350401E-001;-6.970566310248897E+001;
7.443577088295471E+008;-9.299927042678094E-001;1.502639912370500E+002;
7.727838776657330E+008;-9.504691300604085E-001;4.916109257927994E+000;
8.022956093504235E+008;-9.648993631309553E-001;-1.460148163113254E+002;
8.329343602861624E+008;-9.869852109659910E-001;5.730884478127797E+001;
8.647431700480518E+008;-1.008705099688643E+000;-1.053595907075023E+002;
8.977667218432996E+008;-1.027097380059729E+000;8.577745575933874E+001;
9.320514052796482E+008;-1.049776501706019E+000;-8.953465135126535E+001;
9.676453815308577E+008;-1.065253608686859E+000;8.845690104866499E+001;
1.004598650990784E+009;-1.090774660225838E+000;-1.005087351977794E+002;
1.042963123511089E+009;-1.109790016127668E+000;6.333914903698674E+001;
1.082792691321250E+009;-1.133062457625719E+000;-1.403260020085243E+002;
1.124143304733295E+009;-1.160468702251758E+000;8.256642919084452E+000;
1.167073050737623E+009;-1.177908243056710E+000;1.487525823986167E+002;
1.211642234600307E+009;-1.204593805578966E+000;-7.915385837110293E+001;
1.257913464576497E+009;-1.230429420054796E+000;4.428304150221933E+001;
1.305951739858941E+009;-1.252894313554625E+000;1.586590465782264E+002;
1.355824541885154E+009;-1.282293622417962E+000;-9.635944195351127E+001;
1.407601929131501E+009;-1.301614120321169E+000;-1.027985125247068E+000;
1.461356635527369E+009;-1.332804642598390E+000;8.409002353012433E+001;
1.517164172627645E+009;-1.361554305067794E+000;1.587852020146976E+002;
1.575102935687062E+009;-1.381891159189586E+000;-1.374780305963002E+002;
1.635254313785392E+009;-1.420846658637394E+000;-8.499727925306262E+001;
1.697702804158197E+009;-1.439651092461360E+000;-4.425269308837572E+001;
1.762536130893741E+009;-1.487008549045860E+000;-1.566957356349883E+001;
1.829845368162803E+009;-1.506290648906628E+000;1.649895344703066E-001;
1.899725068154491E+009;-1.547196903771428E+000;2.926455650024872E+000;
1.972273393897780E+009;-1.578502925631088E+000;-8.015469734849667E+000;
2.047592257155356E+009;-1.612749486862110E+000;-3.298198310674606E+001;
2.125787461583465E+009;-1.634476594875158E+000;-7.275924905237319E+001;
2.206968851358869E+009;-1.668604768714724E+000;-1.277993410306872E+002;
2.291250465481706E+009;-1.725437738803645E+000;1.613719646789396E+002;
2.378750697970985E+009;-1.757978958757707E+000;7.401382277542643E+001;
2.469592464177779E+009;-1.781877551549942E+000;-3.031249540478037E+001;
2.563903373449715E+009;-1.811440102328763E+000;-1.524613259644538E+002;
2.661815908389335E+009;-1.856699453447641E+000;6.702715186655205E+001;
2.763467610958116E+009;-1.916691619800658E+000;-9.280849033705106E+001;
2.869001275687604E+009;-2.002664649429788E+000;8.771336995307132E+001;
2.978565150269043E+009;-2.003064681108144E+000;-1.120872683091950E+002;
3.092313143803313E+009;-2.002234991773071E+000;2.629314684197414E+001;
3.210405043003673E+009;-2.040847905385150E+000;1.424432127799151E+002;
3.333006736655056E+009;-2.101420245620159E+000;-1.241796698007003E+002;
3.460290448645197E+009;-2.134152595647167E+000;-5.504684640992151E+001;
3.592434979894962E+009;-2.189911280454316E+000;-1.042643906325046E+001;
3.729625959527711E+009;-2.203752216373985E+000;8.135847656111487E+000;
3.872056105630537E+009;-2.307439245558534E+000;-2.871193778500226E-001;
4.019925495973672E+009;-2.371244611934345E+000;-3.627717336227938E+001;
4.173441849068368E+009;-2.514276792361039E+000;-1.016464659446546E+002;
4.332820815958047E+009;-2.667421964043061E+000;1.642676667094966E+002;
4.498286283152621E+009;-2.827615050314709E+000;3.664193163577625E+001;
4.670070687131537E+009;-3.194654547224665E+000;-1.152443910493504E+002;
4.848415340857322E+009;-2.669800576580024E+000;5.168231976983638E+001;
5.033570772758309E+009;-2.655697400390973E+000;-1.757851299024712E+002;
5.225797078656734E+009;-2.772920677670715E+000;-7.874881300549072E+001;
5.425364287136548E+009;-2.877796725306488E+000;-1.963471254179970E+001;
5.632552738864227E+009;-2.958817971802937E+000;9.746682592972482E-001;
5.847653480395394E+009;-3.076722630064152E+000;-1.848631654969962E+001;
6.070968673020469E+009;-3.332118374510535E+000;-7.998707526670368E+001;
6.302812017223670E+009;-3.448231126926269E+000;1.754161426827591E+002;
6.543509193351618E+009;-3.409250500273863E+000;2.543627695163593E+001;
6.793398319110564E+009;-3.643365385366828E+000;-1.725173110570964E+002;
7.052830424534919E+009;-3.774821135822079E+000;-5.876607043262786E+001;
7.322169945094285E+009;-3.981550135535288E+000;7.195288547741927E+000;
7.601795233631680E+009;-3.907916422341533E+000;1.823770285756237E+001;
7.892099091852097E+009;-3.746780948937038E+000;-2.595066763681833E+001;
8.193489322108005E+009;-3.735173449320098E+000;-1.271365161461845E+002;
8.506389300256902E+009;-3.653120356031695E+000;7.276569637561310E+001;
8.831238570395649E+009;-3.862954465502466E+000;-1.473567458228013E+002;
9.168493462307018E+009;-3.728083374828030E+000;-7.367521278275578E+001;
9.518627732485830E+009;-3.981234065944290E+000;-6.401249768027994E+001;
9.882133229645132E+009;-4.421727210863168E+000;-1.235055294485578E+002;
1.025952058563731E+010;-4.370120798783699E+000;1.072402882070529E+002;
1.065131993276066E+010;-4.413868887414991E+000;-9.625613962244378E+001;
1.105808164845913E+010;-4.851652249516938E+000;-1.625727724090703E+001;
1.148037712846121E+010;-4.837101555112840E+000;-1.382891497540303E+001;
1.191879958944423E+010;-4.707376089390008E+000;-9.660317892920850E+001;
1.237396490235132E+010;-4.718878718075069E+000;9.193445648579792E+001;
1.284651245753197E+010;-5.499355107082496E+000;-1.645747463743267E+002;
1.333710606292122E+010;-5.627595441511278E+000;-1.510946762529953E+002;
1.384643487651927E+010;-4.931714340523040E+000;1.204132465485881E+002;
1.437521437448148E+010;-5.329163736296439E+000;-6.436767156675077E+001;
1.492418735617858E+010;-5.125257715939487E+000;3.829777594626159E+000;
1.549412498763898E+010;-5.502225305253595E+000;-3.476089617068203E+001;
1.608582788483898E+010;-5.809931461581924E+000;1.794048278899008E+002;
1.670012723836252E+010;-5.883668684770875E+000;-9.389394507319248E+001;
1.733788598101053E+010;-7.383391454461555E+000;-1.184729409620979E+002;
1.800000000000000E+010;-8.358373384384102E+000;9.180018752049645E+001;
