# Version 1.00
#
freq[Hz];db:Trc1_S21;ang:Trc1_S21;
1.000000000000000E+007;-1.444956709049984E-001;-3.860812191629118E+001;
1.038188855303029E+007;-1.119125522608313E-001;-3.995558403165563E+001;
1.077836099275414E+007;-9.716200350450539E-002;-3.995732002396657E+001;
1.118997426111024E+007;-3.057307220403465E-001;-4.335189795591152E+001;
1.161730656901240E+007;-1.427183402821932E-001;-4.343676280707074E+001;
1.206095820858735E+007;-1.123761536031495E-001;-4.567769788349042E+001;
1.252155239643097E+007;-1.070512645061629E-001;-4.786387673584621E+001;
1.299973614906757E+007;-1.253205851046420E-001;-4.903168163416150E+001;
1.349618119184187E+007;-4.643935584558410E-002;-5.122652527772277E+001;
1.401158490252058E+007;-1.917974885572260E-002;-5.325831711424389E+001;
1.454667129092905E+007;-1.974873670670761E-001;-5.554496362679889E+001;
1.510219201599907E+007;-2.409109917741862E-001;-5.649850139624957E+001;
1.567892744165662E+007;-9.675515126584304E-002;-5.972215273393282E+001;
1.627768773303274E+007;-1.308686568859885E-001;-6.152527464846282E+001;
1.689931399453742E+007;-4.209639305524145E-002;-6.373656272342153E+001;
1.754467945139527E+007;-5.470384260633716E-002;-6.631519651360311E+001;
1.821469067630263E+007;-1.640029756000647E-001;-6.852405061948439E+001;
1.891028886292939E+007;-1.478319733065887E-001;-7.140269480124756E+001;
1.963245114805428E+007;-1.564374335049508E-001;-7.468024144858593E+001;
2.038219198419111E+007;-1.372737658358380E-001;-7.717411013085565E+001;
2.116056456463395E+007;-1.515256773642188E-001;-7.970597971617927E+001;
2.196866230292316E+007;-1.523075285148307E-001;-8.328844446395975E+001;
2.280762036881060E+007;-1.161767853253960E-001;-8.595691962974848E+001;
2.367861728288153E+007;-1.168340654384540E-001;-8.970298221242560E+001;
2.458287657207330E+007;-9.766568114079087E-002;-9.295730182434599E+001;
2.552166848841643E+007;-1.108568570601681E-001;-9.637233037696794E+001;
2.649631179341245E+007;-1.309217595940495E-001;-1.002415551607880E+002;
2.750817561055502E+007;-1.427325255951729E-001;-1.038284898594085E+002;
2.855868134859682E+007;-1.220934613480730E-001;-1.078428395979042E+002;
2.964930469826371E+007;-1.002047760113943E-001;-1.123439862473429E+002;
3.078157770522112E+007;-1.404561897125143E-001;-1.160649319677415E+002;
3.195709092220476E+007;-1.361267423168681E-001;-1.206441612433375E+002;
3.317749564333858E+007;-1.489591449876863E-001;-1.254030464445107E+002;
3.444450622377892E+007;-1.628936160782416E-001;-1.301687722582803E+002;
3.575990248794310E+007;-1.615583733965748E-001;-1.349096061176811E+002;
3.712553222970559E+007;-1.616167275652249E-001;-1.401755390307850E+002;
3.854331380807376E+007;-1.752853921154996E-001;-1.454034321906763E+002;
4.001523884198953E+007;-2.016760508900801E-001;-1.511078867987976E+002;
4.154337500804243E+007;-1.746946758537619E-001;-1.565301281661416E+002;
4.312986894502404E+007;-1.711890270035421E-001;-1.626909229264074E+002;
4.477694926940417E+007;-1.517632434536926E-001;-1.687408137858803E+002;
4.648692970596453E+007;-1.684566957905036E-001;-1.754962536890266E+002;
4.826221233798770E+007;-1.459146575133993E-001;1.778568083914362E+002;
5.010529098156718E+007;-1.826498456215388E-001;1.709559221426902E+002;
5.201875468877842E+007;-2.049788135404036E-001;1.636731781434246E+002;
5.400529138463195E+007;-1.843288898749181E-001;1.563816377864078E+002;
5.606769164291760E+007;-1.878570546662216E-001;1.485858918859343E+002;
5.820885260624383E+007;-2.089074956491576E-001;1.405684664379163E+002;
6.043178205577903E+007;-1.569411715036990E-001;1.320428291531608E+002;
6.273960263641138E+007;-2.166316571623816E-001;1.232979178049748E+002;
6.513555624326284E+007;-2.293726281349293E-001;1.143384079233418E+002;
6.762300857571912E+007;-2.296901157868166E-001;1.050399183998420E+002;
7.020545386537276E+007;-2.313947406737590E-001;9.550383539355629E+001;
7.288651978452097E+007;-2.166017252483957E-001;8.528715044919733E+001;
7.566997254211341E+007;-2.030900915598341E-001;7.491282635615140E+001;
7.855972217430838E+007;-2.644282275476325E-001;6.395728019234218E+001;
8.155982803706922E+007;-2.361515811689658E-001;5.268238918944580E+001;
8.467450450851679E+007;-2.435413457367138E-001;4.086944378016713E+001;
8.790812690904823E+007;-2.357227205949154E-001;2.880439098567986E+001;
9.126523764753820E+007;-2.469791639661430E-001;1.620713251307143E+001;
9.475055260225661E+007;-2.412374579888068E-001;3.116925037163516E+000;
9.836896774546625E+007;-2.442711657678315E-001;-1.050662560176340E+001;
1.021255660210062E+008;-2.612719625122239E-001;-2.451194032018235E+001;
1.060256244845224E+008;-2.584731897866047E-001;-3.930876833730979E+001;
1.100746217163751E+008;-2.661952511813783E-001;-5.456040776027560E+001;
1.142782455176374E+008;-2.756236395886200E-001;-7.033448288761494E+001;
1.186424008999945E+008;-2.797065738157948E-001;-8.662960365915590E+001;
1.231732183807684E+008;-2.944378406750400E-001;-1.036608484264852E+002;
1.278770625947199E+008;-2.840942660150071E-001;-1.213861264545093E+002;
1.327605412347261E+008;-2.934982190944250E-001;-1.397888852644858E+002;
1.378305143338909E+008;-3.046012171022663E-001;-1.587935546647153E+002;
1.430941039021300E+008;-2.978932048972748E-001;-1.786168836767845E+002;
1.485587039307650E+008;-3.094180481508099E-001;1.609522945910108E+002;
1.542319907791826E+008;-3.144284612325105E-001;1.396161370395206E+002;
1.601219339581469E+008;-3.232395870421375E-001;1.174485282338099E+002;
1.662368073249158E+008;-3.241399526478189E-001;9.449040733649480E+001;
1.725852007058845E+008;-3.381965665981014E-001;7.060385515995642E+001;
1.791760319630858E+008;-3.429190632843299E-001;4.593717400160697E+001;
1.860185595214950E+008;-3.482998922619422E-001;2.019291761993167E+001;
1.931223953747393E+008;-3.581738174962759E-001;-6.508861021762908E+000;
2.004975185874796E+008;-3.706192710313286E-001;-3.418731372492730E+001;
2.081542893134333E+008;-3.706834097451703E-001;-6.296142298488255E+001;
2.161034633487289E+008;-3.888448868631993E-001;-9.275009845094672E+001;
2.243562072410370E+008;-3.779353449355684E-001;-1.237934386773137E+002;
2.329241139757013E+008;-3.969796438520492E-001;-1.559866725075436E+002;
2.418192192609057E+008;-4.049099097595025E-001;1.706039558552348E+002;
2.510540184347519E+008;-4.048882061704860E-001;1.359405320147000E+002;
2.606414840180006E+008;-4.180577199573455E-001;9.996849015343776E+001;
2.705950839371309E+008;-4.256410905941198E-001;6.255665145690853E+001;
2.809288004433170E+008;-4.325612776663870E-001;2.376225533373817E+001;
2.916571497539004E+008;-4.439921756410434E-001;-1.649972675858165E+001;
3.027952024439460E+008;-4.468124783388173E-001;-5.833654488586205E+001;
3.143586046165293E+008;-4.613481767477619E-001;-1.017390182503000E+002;
3.263635998814921E+008;-4.745270348492918E-001;-1.468388690080164E+002;
3.388270521735421E+008;-4.802823464474925E-001;1.664187710252128E+002;
3.517664694417494E+008;-4.870714095972806E-001;1.178349553439284E+002;
3.652000282437178E+008;-4.945962546973579E-001;6.740206450770167E+001;
3.791465992789793E+008;-5.082114832787785E-001;1.505969634318043E+001;
3.936257738974798E+008;-5.158004690107170E-001;-3.932300487961962E+001;
4.086578916203936E+008;-5.306117222722184E-001;-9.575068693677606E+001;
4.242640687119258E+008;-5.422014988577208E-001;-1.543300397854369E+002;
4.404662278422399E+008;-5.488276688371614E-001;1.448826688461638E+002;
4.572871288831783E+008;-5.576547760702796E-001;8.174262489176925E+001;
4.747504008800356E+008;-5.728352679455926E-001;1.616444603323888E+001;
4.928805752442984E+008;-5.872985418803107E-001;-5.184261540947048E+001;
5.117031202139767E+008;-5.922162463128085E-001;-1.225006472584326E+002;
5.312444766299368E+008;-6.056772130999619E-001;1.641610541188762E+002;
5.515320950784909E+008;-6.200755969306926E-001;8.803831285962380E+001;
5.725944744524199E+008;-6.287665145988151E-001;9.014451768927158E+000;
5.944612019845973E+008;-6.414939951055382E-001;-7.307104243652859E+001;
6.171629948104519E+008;-6.575708362183935E-001;-1.583042165399668E+002;
6.407317431176524E+008;-6.686020525224695E-001;1.132885040934521E+002;
6.652005549436301E+008;-6.856343932869575E-001;2.145423818196834E+001;
6.906038026838671E+008;-6.956730181913459E-001;-7.387008125838364E+001;
7.169771713762831E+008;-7.060000328838807E-001;-1.728219728740166E+002;
7.443577088295471E+008;-7.164217991158350E-001;8.441394056024411E+001;
7.727838776657330E+008;-7.381926882575171E-001;-2.224120630613525E+001;
8.022956093504235E+008;-7.487851991715484E-001;-1.329373211814200E+002;
8.329343602861624E+008;-7.611997248596649E-001;1.121130482456647E+002;
8.647431700480518E+008;-7.756800154556534E-001;-7.287713255683560E+000;
8.977667218432996E+008;-7.948866481516640E-001;-1.312537437051629E+002;
9.320514052796482E+008;-8.120382095864350E-001;1.001915758645092E+002;
9.676453815308577E+008;-8.232722763163134E-001;-3.341283002494793E+001;
1.004598650990784E+009;-8.445653065037957E-001;-1.720268884337507E+002;
1.042963123511089E+009;-8.549709704594469E-001;4.402269435774376E+001;
1.082792691321250E+009;-8.723759009251441E-001;-1.053800992133190E+002;
1.124143304733295E+009;-8.836109240860665E-001;9.944009080705095E+001;
1.167073050737623E+009;-9.027109299087621E-001;-6.162473895643341E+001;
1.211642234600307E+009;-9.259192918412899E-001;1.311434034314222E+002;
1.257913464576497E+009;-9.322240220421700E-001;-4.245158877068527E+001;
1.305951739858941E+009;-9.588157741796264E-001;1.373205922337044E+002;
1.355824541885154E+009;-9.796269873753084E-001;-4.980579163399579E+001;
1.407601929131501E+009;-9.852263454920786E-001;1.159588142784233E+002;
1.461356635527369E+009;-1.014929624210398E+000;-8.567601179871330E+001;
1.517164172627645E+009;-1.031538493236887E+000;6.492668076436090E+001;
1.575102935687062E+009;-1.045793473882886E+000;-1.525219168498362E+002;
1.635254313785392E+009;-1.065908927181495E+000;-1.811972363108607E+001;
1.697702804158197E+009;-1.088993555648695E+000;1.076161576004932E+002;
1.762536130893741E+009;-1.121175742636779E+000;-1.355691734578549E+002;
1.829845368162803E+009;-1.146180970512615E+000;-2.809489521067188E+001;
1.899725068154491E+009;-1.161658706047306E+000;6.985339323203709E+001;
1.972273393897780E+009;-1.184792114869557E+000;1.575457373840431E+002;
2.047592257155356E+009;-1.207708559792551E+000;-1.249390358905971E+002;
2.125787461583465E+009;-1.238988790150680E+000;-5.828736380290292E+001;
2.206968851358869E+009;-1.256237634211592E+000;-2.879960030124547E+000;
2.291250465481706E+009;-1.278397620182842E+000;4.104962496653315E+001;
2.378750697970985E+009;-1.295588219781863E+000;7.282887607262124E+001;
2.469592464177779E+009;-1.320849794143582E+000;9.208587634259219E+001;
2.563903373449715E+009;-1.352486572269100E+000;9.826954491568199E+001;
2.661815908389335E+009;-1.393756190019281E+000;9.098549789107169E+001;
2.763467610958116E+009;-1.408952368145038E+000;6.968548640426508E+001;
2.869001275687604E+009;-1.447065017666408E+000;3.368226052354968E+001;
2.978565150269043E+009;-1.466229105722103E+000;-1.721261262715958E+001;
3.092313143803313E+009;-1.486054199649445E+000;-8.402097100479293E+001;
3.210405043003673E+009;-1.547422401479164E+000;-1.668060674285339E+002;
3.333006736655056E+009;-1.580769084061500E+000;9.313597842131215E+001;
3.460290448645197E+009;-1.616006630047703E+000;-2.419572621137302E+001;
3.592434979894962E+009;-1.668890617036298E+000;-1.597880978523107E+002;
3.729625959527711E+009;-1.711786541755935E+000;4.561108291978958E+001;
3.872056105630537E+009;-1.747006028821526E+000;-1.287522121024320E+002;
4.019925495973672E+009;-1.805505065267024E+000;3.652566623126540E+001;
4.173441849068368E+009;-1.877670915474382E+000;-1.792255906152751E+002;
4.332820815958047E+009;-1.936083665655076E+000;-5.675874348571834E+001;
4.498286283152621E+009;-1.987300168714256E+000;4.280293565066690E+001;
4.670070687131537E+009;-2.021653045699927E+000;1.185631629847536E+002;
4.848415340857322E+009;-2.110396976264595E+000;1.696715530070800E+002;
5.033570772758309E+009;-2.191188298678358E+000;-1.638091974560664E+002;
5.225797078656734E+009;-2.141389057364974E+000;-1.647706256999672E+002;
5.425364287136548E+009;-2.182929041278055E+000;1.673016489059772E+002;
5.632552738864227E+009;-2.139431051083975E+000;1.103626088264794E+002;
5.847653480395394E+009;-2.220784758135713E+000;2.357368229445501E+001;
6.070968673020469E+009;-2.198547952841986E+000;-9.423573870858252E+001;
6.302812017223670E+009;-2.225474007456323E+000;1.163257254297694E+002;
6.543509193351618E+009;-2.297411513440701E+000;-6.650444369603402E+001;
6.793398319110564E+009;-2.317556080451574E+000;7.607356362355240E+001;
7.052830424534919E+009;-2.303593390428917E+000;-1.768389702633963E+002;
7.322169945094285E+009;-2.311907738127413E+000;-1.068891622675252E+002;
7.601795233631680E+009;-2.425810614268592E+000;-7.587924116041164E+001;
7.892099091852097E+009;-2.445988208328608E+000;-8.464956199462176E+001;
8.193489322108005E+009;-2.530837778679436E+000;-1.354050458336521E+002;
8.506389300256902E+009;-2.599883020214374E+000;1.314294028303486E+002;
8.831238570395649E+009;-2.639956231986767E+000;-6.540232269080248E+000;
9.168493462307018E+009;-2.689443346061136E+000;1.677079891720054E+002;
9.518627732485830E+009;-2.765097146985858E+000;-6.476014974495132E+001;
9.882133229645132E+009;-2.827294440740350E+000;1.099289049530610E+001;
1.025952058563731E+010;-2.880477847287419E+000;3.589444753872972E+001;
1.065131993276066E+010;-2.968547662105236E+000;7.271894681502503E+000;
1.105808164845913E+010;-3.069262574940876E+000;-7.783366353624530E+001;
1.148037712846121E+010;-3.117063930375362E+000;1.393037465670827E+002;
1.191879958944423E+010;-3.045641115868837E+000;-6.658262341307963E+001;
1.237396490235132E+010;-3.110795779544086E+000;2.693748534794555E+001;
1.284651245753197E+010;-3.220707903756604E+000;5.343496720050892E+001;
1.333710606292122E+010;-3.366469728368251E+000;1.504366654178424E+001;
1.384643487651927E+010;-3.489782405838957E+000;-9.691773157683841E+001;
1.437521437448148E+010;-3.405368896050694E+000;8.016489508989898E+001;
1.492418735617858E+010;-3.430605333609388E+000;-1.787391748533956E+002;
1.549412498763898E+010;-3.526260953004751E+000;-1.569983530234621E+002;
1.608582788483898E+010;-3.700520095726613E+000;1.424317319024487E+002;
1.670012723836252E+010;-3.734791191950391E+000;-1.348186545963904E+000;
1.733788598101053E+010;-3.920262491636194E+000;1.244203713120555E+002;
1.800000000000000E+010;-4.162878238220381E+000;1.621161026886891E+002;
