# Version 1.00
#
freq[Hz];db:Trc1_S21;ang:Trc1_S21;
1.000000000000000E+007;-1.573193462726235E-001;-6.365775745061544E+001;
1.038188855303029E+007;-1.248398173734155E-001;-6.584707266579149E+001;
1.077836099275414E+007;-1.183859527345235E-001;-6.682493270553566E+001;
1.118997426111024E+007;-4.008395859212331E-001;-7.119091605471411E+001;
1.161730656901240E+007;-2.029999418329185E-001;-7.228675708885915E+001;
1.206095820858735E+007;-1.086815786301438E-001;-7.590524622039108E+001;
1.252155239643097E+007;-1.508078047213964E-001;-7.914365144352642E+001;
1.299973614906757E+007;-1.760525197626953E-001;-8.146309847491631E+001;
1.349618119184187E+007;-1.325195321632718E-001;-8.502833398403287E+001;
1.401158490252058E+007;-9.907721342956043E-002;-8.829246532192938E+001;
1.454667129092905E+007;-2.254899249311732E-001;-9.166167193924333E+001;
1.510219201599907E+007;-3.220640127735360E-001;-9.411327910860398E+001;
1.567892744165662E+007;-1.835716575782927E-001;-9.884308059056076E+001;
1.627768773303274E+007;-2.180560879752153E-001;-1.020132483127689E+002;
1.689931399453742E+007;-1.202744655445928E-001;-1.059872178153771E+002;
1.754467945139527E+007;-1.519676937620935E-001;-1.101717795789652E+002;
1.821469067630263E+007;-2.207341692164504E-001;-1.140513904932524E+002;
1.891028886292939E+007;-2.010843009591872E-001;-1.187393731863242E+002;
1.963245114805428E+007;-2.312424861234733E-001;-1.236617128265441E+002;
2.038219198419111E+007;-2.022392016911892E-001;-1.280730452680091E+002;
2.116056456463395E+007;-2.230221760830748E-001;-1.325216913424844E+002;
2.196866230292316E+007;-2.362706901859724E-001;-1.379174245111324E+002;
2.280762036881060E+007;-2.018086920632589E-001;-1.428471858360517E+002;
2.367861728288153E+007;-1.909341830290726E-001;-1.487742265672215E+002;
2.458287657207330E+007;-1.903034651913834E-001;-1.541513887130157E+002;
2.552166848841643E+007;-1.819165865268378E-001;-1.599654434636464E+002;
2.649631179341245E+007;-2.147673637947727E-001;-1.661902238424492E+002;
2.750817561055502E+007;-2.108981820001769E-001;-1.723395704112652E+002;
2.855868134859682E+007;-2.100985575887303E-001;-1.790075809526595E+002;
2.964930469826371E+007;-1.718309445041038E-001;1.738536030801664E+002;
3.078157770522112E+007;-2.309102243377045E-001;1.672914084288645E+002;
3.195709092220476E+007;-2.321592635754076E-001;1.596524491135579E+002;
3.317749564333858E+007;-2.373136887672971E-001;1.519859226990473E+002;
3.444450622377892E+007;-2.529592187048089E-001;1.440575230960862E+002;
3.575990248794310E+007;-2.595784688415059E-001;1.360620063074537E+002;
3.712553222970559E+007;-2.474730494617763E-001;1.272707992937658E+002;
3.854331380807376E+007;-2.871767842844947E-001;1.185888105877290E+002;
4.001523884198953E+007;-2.962839937177781E-001;1.092063392772502E+002;
4.154337500804243E+007;-2.801799125244643E-001;1.000884532522763E+002;
4.312986894502404E+007;-2.720172962772519E-001;8.996749843237154E+001;
4.477694926940417E+007;-2.612246558052900E-001;7.981019590321718E+001;
4.648692970596453E+007;-2.817917339637071E-001;6.883929898262365E+001;
4.826221233798770E+007;-2.649851980921200E-001;5.774140851462889E+001;
5.010529098156718E+007;-2.904066462716365E-001;4.632831927000352E+001;
5.201875468877842E+007;-3.184225101271138E-001;3.422915106028694E+001;
5.400529138463195E+007;-2.958774391046691E-001;2.204726445678844E+001;
5.606769164291760E+007;-3.050370663627836E-001;9.186145311747882E+000;
5.820885260624383E+007;-3.327748333930496E-001;-4.191334360220224E+000;
6.043178205577903E+007;-2.717346962755748E-001;-1.825439402924404E+001;
6.273960263641138E+007;-3.410189001134817E-001;-3.266527275764875E+001;
6.513555624326284E+007;-3.540134875862946E-001;-4.757720095127220E+001;
6.762300857571912E+007;-3.528956739737312E-001;-6.308418786909950E+001;
7.020545386537276E+007;-3.619963194642603E-001;-7.898868555397610E+001;
7.288651978452097E+007;-3.506159391140403E-001;-9.591089448356013E+001;
7.566997254211341E+007;-3.440861327390851E-001;-1.131879127061967E+002;
7.855972217430838E+007;-4.010069878747775E-001;-1.312333995631357E+002;
8.155982803706922E+007;-3.730642517531079E-001;-1.500294182772817E+002;
8.467450450851679E+007;-3.924056904085796E-001;-1.695325814401642E+002;
8.790812690904823E+007;-3.826989219396262E-001;1.703731599332144E+002;
9.126523764753820E+007;-3.965069151951791E-001;1.494750455737736E+002;
9.475055260225661E+007;-3.980003384963788E-001;1.276747013403341E+002;
9.836896774546625E+007;-4.063212348418938E-001;1.051233424697547E+002;
1.021255660210062E+008;-4.223713165839825E-001;8.185034539078445E+001;
1.060256244845224E+008;-4.262781494596936E-001;5.734950898636973E+001;
1.100746217163751E+008;-4.323308419743386E-001;3.207685458851529E+001;
1.142782455176374E+008;-4.492363924709457E-001;5.880781718620474E+000;
1.186424008999945E+008;-4.538819321470585E-001;-2.119795755030081E+001;
1.231732183807684E+008;-4.744895474869685E-001;-4.949826358752255E+001;
1.278770625947199E+008;-4.640209598414348E-001;-7.887392166431424E+001;
1.327605412347261E+008;-4.759279172817139E-001;-1.093453531562235E+002;
1.378305143338909E+008;-4.952859668773403E-001;-1.409371545169416E+002;
1.430941039021300E+008;-4.911210040476222E-001;-1.737577082652772E+002;
1.485587039307650E+008;-5.056397051533559E-001;1.522294751816413E+002;
1.542319907791826E+008;-5.108037303199052E-001;1.168428860217766E+002;
1.601219339581469E+008;-5.253013781225573E-001;8.006647501707622E+001;
1.662368073249158E+008;-5.342888536722035E-001;4.197694933473144E+001;
1.725852007058845E+008;-5.455578801663902E-001;2.363260265152626E+000;
1.791760319630858E+008;-5.569784215213627E-001;-3.863901605189301E+001;
1.860185595214950E+008;-5.652477055372187E-001;-8.133775662248854E+001;
1.931223953747393E+008;-5.837284716633693E-001;-1.256771206689972E+002;
2.004975185874796E+008;-5.958426008127690E-001;-1.715865060036451E+002;
2.081542893134333E+008;-6.050880538116487E-001;1.406352010388542E+002;
2.161034633487289E+008;-6.287070764753140E-001;9.117149922645247E+001;
2.243562072410370E+008;-6.206645135804281E-001;3.967079286178638E+001;
2.329241139757013E+008;-6.454071947528833E-001;-1.373036979546410E+001;
2.418192192609057E+008;-6.581049252750264E-001;-6.919978894991054E+001;
2.510540184347519E+008;-6.696533819785544E-001;-1.267440933487332E+002;
2.606414840180006E+008;-6.918121420638724E-001;1.735350372349114E+002;
2.705950839371309E+008;-7.081380188448061E-001;1.114758632668015E+002;
2.809288004433170E+008;-7.235566771210800E-001;4.713065137759838E+001;
2.916571497539004E+008;-7.424543666181153E-001;-1.965221440510832E+001;
3.027952024439460E+008;-7.488994677824516E-001;-8.904705856354106E+001;
3.143586046165293E+008;-7.682519267594415E-001;-1.610579939881814E+002;
3.263635998814921E+008;-7.752862009093836E-001;1.241102921262474E+002;
3.388270521735421E+008;-7.893756609241043E-001;4.646698904797128E+001;
3.517664694417494E+008;-8.020338246241082E-001;-3.419628410472204E+001;
3.652000282437178E+008;-8.186640207351890E-001;-1.179071025076933E+002;
3.791465992789793E+008;-8.423397329002534E-001;1.551921778887049E+002;
3.936257738974798E+008;-8.707858480789111E-001;6.493297947255934E+001;
4.086578916203936E+008;-8.986757386373618E-001;-2.862584492007420E+001;
4.242640687119258E+008;-9.215263936110604E-001;-1.257787352995424E+002;
4.404662278422399E+008;-9.195962732496259E-001;1.333872574414191E+002;
4.572871288831783E+008;-9.305523392216096E-001;2.854991432390520E+001;
4.747504008800356E+008;-9.532985740883103E-001;-8.029810089770342E+001;
4.928805752442984E+008;-9.816978651678521E-001;1.667841146143646E+002;
5.117031202139767E+008;-9.961589580996118E-001;4.953111770987184E+001;
5.312444766299368E+008;-1.025145070597986E+000;-7.220409854410819E+001;
5.515320950784909E+008;-1.047128325984433E+000;1.615221593324187E+002;
5.725944744524199E+008;-1.070996394988596E+000;3.035243466585275E+001;
5.944612019845973E+008;-1.091062674429125E+000;-1.058691853719697E+002;
6.171629948104519E+008;-1.113729738209123E+000;1.127608316501784E+002;
6.407317431176524E+008;-1.139842424553281E+000;-3.403680415951370E+001;
6.652005549436301E+008;-1.170049489532712E+000;1.735723609783637E+002;
6.906038026838671E+008;-1.193476453919496E+000;1.535301691950169E+001;
7.169771713762831E+008;-1.223471029053779E+000;-1.488640524354060E+002;
7.443577088295471E+008;-1.245671484413886E+000;4.062354237448214E+001;
7.727838776657330E+008;-1.284850706390163E+000;-1.364052039026218E+002;
8.022956093504235E+008;-1.310167423672082E+000;3.991427383459855E+001;
8.329343602861624E+008;-1.336997551833674E+000;-1.508851511131250E+002;
8.647431700480518E+008;-1.369224190260205E+000;1.101001134068233E+001;
8.977667218432996E+008;-1.405321864771023E+000;1.653534755968832E+002;
9.320514052796482E+008;-1.440082283238707E+000;-4.809450006647038E+001;
9.676453815308577E+008;-1.477463802562408E+000;9.037524835579984E+001;
1.004598650990784E+009;-1.509429787694163E+000;-1.397212223840305E+002;
1.042963123511089E+009;-1.547139456657247E+000;-1.864004214641350E+001;
1.082792691321250E+009;-1.597960842370712E+000;9.341195227927410E+001;
1.124143304733295E+009;-1.636429276313116E+000;-1.640160109206631E+002;
1.167073050737623E+009;-1.674444979578275E+000;-7.127110672484785E+001;
1.211642234600307E+009;-1.729590856311488E+000;1.123131791062832E+001;
1.257913464576497E+009;-1.766420900847311E+000;8.331359171186735E+001;
1.305951739858941E+009;-1.813639078822142E+000;1.441906125520328E+002;
1.355824541885154E+009;-1.882969895346542E+000;-1.661680337024979E+002;
1.407601929131501E+009;-1.907549233753770E+000;-1.284053811156499E+002;
1.461356635527369E+009;-1.966304903009571E+000;-1.029722273420800E+002;
1.517164172627645E+009;-2.017863132531550E+000;-9.031885241891592E+001;
1.575102935687062E+009;-2.073170029274476E+000;-9.093550819412194E+001;
1.635254313785392E+009;-2.137409041582682E+000;-1.051636205184571E+002;
1.697702804158197E+009;-2.183887999726248E+000;-1.337770943150094E+002;
1.762536130893741E+009;-2.257661556443188E+000;-1.769951484633155E+002;
1.829845368162803E+009;-2.290386351985814E+000;1.242035867839567E+002;
1.899725068154491E+009;-2.338927146340347E+000;4.953406705852570E+001;
1.972273393897780E+009;-2.378640141770791E+000;-4.189933008688472E+001;
2.047592257155356E+009;-2.408852988982651E+000;-1.504252102784031E+002;
2.125787461583465E+009;-2.434720258312388E+000;8.310178952421796E+001;
2.206968851358869E+009;-2.464252750968029E+000;-6.212589680104871E+001;
2.291250465481706E+009;-2.476691617253563E+000;1.334620847234428E+002;
2.378750697970985E+009;-2.520928280247243E+000;-5.067977971461696E+001;
2.469592464177779E+009;-2.558180938209779E+000;1.039122748492825E+002;
2.563903373449715E+009;-2.539368870529502E+000;-1.230693510877351E+002;
2.661815908389335E+009;-2.585059421780825E+000;-1.241927423553700E+001;
2.763467610958116E+009;-2.650929361356510E+000;7.503035921344441E+001;
2.869001275687604E+009;-2.659914217048131E+000;1.379645809821910E+002;
2.978565150269043E+009;-2.610662154241236E+000;1.757838505599001E+002;
3.092313143803313E+009;-2.846523881442604E+000;-1.734501848544072E+002;
3.210405043003673E+009;-2.880871458712691E+000;1.743251827428325E+002;
3.333006736655056E+009;-2.789374289247145E+000;1.308917260998288E+002;
3.460290448645197E+009;-2.803138512630261E+000;5.844276289385142E+001;
3.592434979894962E+009;-2.834173752181683E+000;-4.404588565001613E+001;
3.729625959527711E+009;-2.818769705636052E+000;-1.780600669297022E+002;
3.872056105630537E+009;-2.898915270113009E+000;1.525035399155951E+001;
4.019925495973672E+009;-2.928546880815177E+000;1.749021361263269E+002;
4.173441849068368E+009;-2.984088136558813E+000;-6.098212924765139E+001;
4.332820815958047E+009;-3.120679375287162E+000;2.684026067352291E+001;
4.498286283152621E+009;-3.294917195340416E+000;7.643193510534128E+001;
4.670070687131537E+009;-3.290122081327318E+000;8.849873633464082E+001;
4.848415340857322E+009;-3.251152440897771E+000;5.799179959961139E+001;
5.033570772758309E+009;-3.362613582907550E+000;-1.437914433872404E+001;
5.225797078656734E+009;-3.530173531485867E+000;-1.314476050673341E+002;
5.425364287136548E+009;-3.609155881649676E+000;6.627724939237869E+001;
5.632552738864227E+009;-3.687774651045058E+000;-1.429011159252324E+002;
5.847653480395394E+009;-4.038442154605573E+000;-4.229903450095369E+001;
6.070968673020469E+009;-4.097346044697380E+000;7.524241359196926E+000;
6.302812017223670E+009;-4.395015220395427E+000;6.551541230027405E+000;
6.543509193351618E+009;-4.144843155483511E+000;-5.238752263540692E+001;
6.793398319110564E+009;-4.438012782078129E+000;-1.695024322236093E+002;
7.052830424534919E+009;-4.612669205116742E+000;1.755344817047604E+001;
7.322169945094285E+009;-5.175337841502798E+000;1.425258289305345E+002;
7.601795233631680E+009;-4.956630299762773E+000;-1.555550508001018E+002;
7.892099091852097E+009;-4.580784058512514E+000;-1.637912418902102E+002;
8.193489322108005E+009;-4.900274385154924E+000;1.186131697944277E+002;
8.506389300256902E+009;-5.014897247797797E+000;-2.837458562445321E+001;
8.831238570395649E+009;-5.310200037341820E+000;1.100372696059507E+002;
9.168493462307018E+009;-5.313659241929054E+000;1.656061307535836E+002;
9.518627732485830E+009;-5.692944228795057E+000;1.526341796272658E+002;
9.882133229645132E+009;-6.319593187402206E+000;4.499123558648773E+001;
1.025952058563731E+010;-5.576582855861490E+000;-1.436495157108020E+002;
1.065131993276066E+010;-5.584999135686414E+000;-6.133133017533158E+001;
1.105808164845913E+010;-6.428137627238400E+000;-7.434146148351427E+001;
1.148037712846121E+010;-6.255584476832722E+000;1.792332549441133E+002;
1.191879958944423E+010;-7.456583533911941E+000;-3.417436665679605E+001;
1.237396490235132E+010;-7.318692255122119E+000;2.055673785130242E+001;
1.284651245753197E+010;-6.453506392316000E+000;-5.153405063231003E+001;
1.333710606292122E+010;-7.493335744067890E+000;1.327196743659065E+002;
1.384643487651927E+010;-6.826270556175984E+000;-1.591641216388485E+002;
1.437521437448148E+010;-7.027545522643758E+000;1.424981068595589E+002;
1.492418735617858E+010;-7.793340767733343E+000;-3.512826976101066E+001;
1.549412498763898E+010;-7.401994004585387E+000;1.215215393574533E+001;
1.608582788483898E+010;-1.011277620690290E+001;-8.627840478642857E+001;
1.670012723836252E+010;-8.081050350607420E+000;5.248519715992443E+001;
1.733788598101053E+010;-7.741257640745337E+000;1.955137250745738E+001;
1.800000000000000E+010;-9.230423915527334E+000;-1.525236555114017E+002;
