# Version 1.00
#
freq[Hz];db:Trc1_S21;ang:Trc1_S21;
1.000000000000000E+007;-1.228036896003325E-001;-4.351159893360745E+001;
1.038188855303029E+007;-1.220797222228922E-001;-4.515184441405769E+001;
1.077836099275414E+007;-5.289486706095595E-002;-4.532505568420590E+001;
1.118997426111024E+007;-3.246264445302097E-001;-4.893518533438030E+001;
1.161730656901240E+007;-1.371156782096760E-001;-4.973062635133726E+001;
1.206095820858735E+007;-6.540174877890759E-002;-5.181892492486163E+001;
1.252155239643097E+007;-5.803377114526608E-002;-5.432992969349197E+001;
1.299973614906757E+007;-1.291083124759894E-001;-5.550944281946840E+001;
1.349618119184187E+007;-6.650253082810312E-002;-5.806843332834477E+001;
1.401158490252058E+007;-1.106011703670633E-002;-6.033110113541388E+001;
1.454667129092905E+007;-1.597416216117047E-001;-6.297627153151151E+001;
1.510219201599907E+007;-2.425319055932128E-001;-6.440720862623378E+001;
1.567892744165662E+007;-8.462658208059574E-002;-6.782582624892264E+001;
1.627768773303274E+007;-1.514645946364892E-001;-6.988475362551812E+001;
1.689931399453742E+007;-5.233803052325246E-002;-7.236182830647786E+001;
1.754467945139527E+007;-8.407125482863735E-002;-7.539889317243303E+001;
1.821469067630263E+007;-1.694927400855506E-001;-7.807206317441721E+001;
1.891028886292939E+007;-1.438960415848354E-001;-8.105764553490788E+001;
1.963245114805428E+007;-1.718594936356699E-001;-8.479006213652710E+001;
2.038219198419111E+007;-1.260088760064849E-001;-8.753110801914698E+001;
2.116056456463395E+007;-1.617820422523884E-001;-9.064816293047598E+001;
2.196866230292316E+007;-1.477063421000219E-001;-9.465122238395988E+001;
2.280762036881060E+007;-1.136377044544289E-001;-9.779289515547880E+001;
2.367861728288153E+007;-1.228133085918580E-001;-1.019041344613194E+002;
2.458287657207330E+007;-1.164581143665065E-001;-1.055717625314101E+002;
2.552166848841643E+007;-1.261953088928114E-001;-1.096245126037165E+002;
2.649631179341245E+007;-1.291451185918498E-001;-1.139308482417848E+002;
2.750817561055502E+007;-1.386955947337557E-001;-1.180754058218372E+002;
2.855868134859682E+007;-1.296543168767603E-001;-1.226187219009749E+002;
2.964930469826371E+007;-1.099801347384709E-001;-1.275290707174759E+002;
3.078157770522112E+007;-1.417581150216968E-001;-1.319962534446594E+002;
3.195709092220476E+007;-1.483498391302742E-001;-1.372532616280781E+002;
3.317749564333858E+007;-1.513539456363501E-001;-1.424620645562755E+002;
3.444450622377892E+007;-1.587381615084916E-001;-1.479612883418231E+002;
3.575990248794310E+007;-1.710959650941064E-001;-1.533488392818471E+002;
3.712553222970559E+007;-1.610950891217139E-001;-1.593704153386475E+002;
3.854331380807376E+007;-1.852742750945946E-001;-1.653198265387440E+002;
4.001523884198953E+007;-2.017562585349770E-001;-1.717727753813868E+002;
4.154337500804243E+007;-1.872821972388696E-001;-1.780239148883740E+002;
4.312986894502404E+007;-1.733765090389939E-001;1.750006381298738E+002;
4.477694926940417E+007;-1.594818639763488E-001;1.681129724889426E+002;
4.648692970596453E+007;-1.717442539277811E-001;1.604770438824894E+002;
4.826221233798770E+007;-1.557422534067364E-001;1.528987992545772E+002;
5.010529098156718E+007;-1.841899727206708E-001;1.450116994296118E+002;
5.201875468877842E+007;-2.088591811195809E-001;1.368138281899971E+002;
5.400529138463195E+007;-1.852755110468008E-001;1.284608031108311E+002;
5.606769164291760E+007;-1.972604861058906E-001;1.196095241768919E+002;
5.820885260624383E+007;-2.219691951951586E-001;1.104656599347551E+002;
6.043178205577903E+007;-1.604042630236909E-001;1.007371367666840E+002;
6.273960263641138E+007;-2.183126655416078E-001;9.084020238419598E+001;
6.513555624326284E+007;-2.435418455329036E-001;8.068397290363271E+001;
6.762300857571912E+007;-2.385120854073337E-001;7.005014340843451E+001;
7.020545386537276E+007;-2.416252037960821E-001;5.923489245872499E+001;
7.288651978452097E+007;-2.281051790064804E-001;4.759737868908168E+001;
7.566997254211341E+007;-2.116386272470018E-001;3.575318219926662E+001;
7.855972217430838E+007;-2.733773572203047E-001;2.336930320643207E+001;
8.155982803706922E+007;-2.399236783785530E-001;1.050390416693423E+001;
8.467450450851679E+007;-2.545766683228943E-001;-2.910615017163031E+000;
8.790812690904823E+007;-2.385603761247838E-001;-1.668786061094067E+001;
9.126523764753820E+007;-2.485883123369228E-001;-3.100203212002491E+001;
9.475055260225661E+007;-2.427828718708417E-001;-4.587492986990090E+001;
9.836896774546625E+007;-2.515720046832905E-001;-6.140278688162696E+001;
1.021255660210062E+008;-2.691821204546297E-001;-7.729485694242074E+001;
1.060256244845224E+008;-2.642832675809235E-001;-9.415479285422543E+001;
1.100746217163751E+008;-2.754096692321133E-001;-1.114720372845064E+002;
1.142782455176374E+008;-2.828896749353606E-001;-1.294268323917149E+002;
1.186424008999945E+008;-2.906807421089218E-001;-1.479711703595708E+002;
1.231732183807684E+008;-3.035265011340892E-001;-1.673464439268485E+002;
1.278770625947199E+008;-2.905341629018694E-001;1.724775162382564E+002;
1.327605412347261E+008;-3.017924396924772E-001;1.515622331287229E+002;
1.378305143338909E+008;-3.084215515086193E-001;1.299637247928862E+002;
1.430941039021300E+008;-3.044465971004674E-001;1.074283894463955E+002;
1.485587039307650E+008;-3.148508500155347E-001;8.411588555644049E+001;
1.542319907791826E+008;-3.161310212840147E-001;5.986997644792193E+001;
1.601219339581469E+008;-3.295769470771397E-001;3.463340618374636E+001;
1.662368073249158E+008;-3.331282899835592E-001;8.528785485532596E+000;
1.725852007058845E+008;-3.392169155457705E-001;-1.865284687996902E+001;
1.791760319630858E+008;-3.463567246113162E-001;-4.674736769959952E+001;
1.860185595214950E+008;-3.556393612502231E-001;-7.602702764535043E+001;
1.931223953747393E+008;-3.672608978063982E-001;-1.063984381241986E+002;
2.004975185874796E+008;-3.776512699156050E-001;-1.378405056844952E+002;
2.081542893134333E+008;-3.753466038752016E-001;-1.706078691663495E+002;
2.161034633487289E+008;-3.929107909279527E-001;1.554699005034059E+002;
2.243562072410370E+008;-3.832326994788792E-001;1.201718344084706E+002;
2.329241139757013E+008;-4.012492173177764E-001;8.356361534782184E+001;
2.418192192609057E+008;-4.072002668788441E-001;4.551768289766992E+001;
2.510540184347519E+008;-4.114235306282458E-001;6.086273943772516E+000;
2.606414840180006E+008;-4.233957936812262E-001;-3.485494332022068E+001;
2.705950839371309E+008;-4.327446442400260E-001;-7.742569069425773E+001;
2.809288004433170E+008;-4.396955231323959E-001;-1.215442149324852E+002;
2.916571497539004E+008;-4.492409270788116E-001;-1.673358910674636E+002;
3.027952024439460E+008;-4.530434591239711E-001;1.450647624958282E+002;
3.143586046165293E+008;-4.665984597847531E-001;9.567173828025683E+001;
3.263635998814921E+008;-4.762818154651183E-001;4.434881383337983E+001;
3.388270521735421E+008;-4.857464415794955E-001;-8.870741412200031E+000;
3.517664694417494E+008;-5.002445248778225E-001;-6.414380977095412E+001;
3.652000282437178E+008;-5.109034387983692E-001;-1.214905288330159E+002;
3.791465992789793E+008;-5.199560932329167E-001;1.790013577723878E+002;
3.936257738974798E+008;-5.220076106772967E-001;1.170961461835130E+002;
4.086578916203936E+008;-5.403780916975784E-001;5.287635326507684E+001;
4.242640687119258E+008;-5.535889516329777E-001;-1.378356781245392E+001;
4.404662278422399E+008;-5.649053418039819E-001;-8.291440379821135E+001;
4.572871288831783E+008;-5.680504775450931E-001;-1.547126411524855E+002;
4.747504008800356E+008;-5.779928748707033E-001;1.306527785720532E+002;
4.928805752442984E+008;-5.961222949043553E-001;5.323900232701730E+001;
5.117031202139767E+008;-6.020018398979403E-001;-2.709506925528193E+001;
5.312444766299368E+008;-6.089250819944301E-001;-1.105947362763687E+002;
5.515320950784909E+008;-6.223503679763325E-001;1.627921791066273E+002;
5.725944744524199E+008;-6.420231226661920E-001;7.286100567841942E+001;
5.944612019845973E+008;-6.502666666963258E-001;-2.051642986244754E+001;
6.171629948104519E+008;-6.589473888939080E-001;-1.174869066435428E+002;
6.407317431176524E+008;-6.772053009364601E-001;1.418582900509204E+002;
6.652005549436301E+008;-7.003367352473554E-001;3.741015486574747E+001;
6.906038026838671E+008;-7.048083401370983E-001;-7.106691127277290E+001;
7.169771713762831E+008;-7.182470778267163E-001;1.763026507477729E+002;
7.443577088295471E+008;-7.412528565531030E-001;5.942211417302691E+001;
7.727838776657330E+008;-7.449972587212350E-001;-6.190161046301469E+001;
8.022956093504235E+008;-7.611497677040179E-001;1.720823887116564E+002;
8.329343602861624E+008;-7.802146669174594E-001;4.132696317829749E+001;
8.647431700480518E+008;-7.888966148011006E-001;-9.452657480680165E+001;
8.977667218432996E+008;-8.079677899650817E-001;1.244536370879661E+002;
9.320514052796482E+008;-8.239280021614622E-001;-2.189409593068720E+001;
9.676453815308577E+008;-8.404675935929602E-001;-1.739091167158213E+002;
1.004598650990784E+009;-8.646955308544525E-001;2.837495434994418E+001;
1.042963123511089E+009;-8.781015604832841E-001;-1.354023286862847E+002;
1.082792691321250E+009;-8.972575580684991E-001;5.455721540731609E+001;
1.124143304733295E+009;-9.124118973660270E-001;-1.219860702369918E+002;
1.167073050737623E+009;-9.301880388483806E-001;5.477278192803373E+001;
1.211642234600307E+009;-9.449069088822957E-001;-1.355729583813890E+002;
1.257913464576497E+009;-9.677736667983189E-001;2.695394048950809E+001;
1.305951739858941E+009;-9.901923992534760E-001;-1.781407785768194E+002;
1.355824541885154E+009;-1.010013570571434E+000;-3.108331478346388E+001;
1.407601929131501E+009;-1.023709612002190E+000;1.079889500702303E+002;
1.461356635527369E+009;-1.048698762331055E+000;-1.215557871031780E+002;
1.517164172627645E+009;-1.071180339258958E+000;2.071053252917113E-001;
1.575102935687062E+009;-1.091331418143999E+000;1.128267694603967E+002;
1.635254313785392E+009;-1.126658828874972E+000;-1.439453256356906E+002;
1.697702804158197E+009;-1.140338540018847E+000;-5.048668387021189E+001;
1.762536130893741E+009;-1.188910244183439E+000;3.275603894127728E+001;
1.829845368162803E+009;-1.198476368137390E+000;1.055261015868177E+002;
1.899725068154491E+009;-1.239334737167070E+000;1.673707843378787E+002;
1.972273393897780E+009;-1.239142496831516E+000;-1.425113424371353E+002;
2.047592257155356E+009;-1.272408898509477E+000;-1.038841358984958E+002;
2.125787461583465E+009;-1.299914718105071E+000;-7.777000602412149E+001;
2.206968851358869E+009;-1.327984676738725E+000;-6.429362624425889E+001;
2.291250465481706E+009;-1.359759655662951E+000;-6.398555457119340E+001;
2.378750697970985E+009;-1.388102480318854E+000;-7.755314270580126E+001;
2.469592464177779E+009;-1.419905008279349E+000;-1.053632599332827E+002;
2.563903373449715E+009;-1.450681299289442E+000;-1.478045538300152E+002;
2.661815908389335E+009;-1.482262287622324E+000;1.541987204981445E+002;
2.763467610958116E+009;-1.534968742918227E+000;8.020784247290834E+001;
2.869001275687604E+009;-1.659159746909678E+000;-1.014978160523804E+001;
2.978565150269043E+009;-1.616192309933549E+000;-1.171844140426236E+002;
3.092313143803313E+009;-1.568643541148219E+000;1.168905712078329E+002;
3.210405043003673E+009;-1.642774044853289E+000;-2.713782336482192E+001;
3.333006736655056E+009;-1.667763595063797E+000;1.695375911962959E+002;
3.460290448645197E+009;-1.714107066761517E+000;-1.387650509161206E+001;
3.592434979894962E+009;-1.754526089021178E+000;1.420905070193440E+002;
3.729625959527711E+009;-1.797952108018450E+000;-8.372439801354449E+001;
3.872056105630537E+009;-1.885257754228873E+000;2.822287491691974E+001;
4.019925495973672E+009;-1.898963015251418E+000;1.168229854705709E+002;
4.173441849068368E+009;-2.101867127293404E+000;-1.795438692908710E+002;
4.332820815958047E+009;-2.165673264491018E+000;-1.386550546798259E+002;
4.498286283152621E+009;-2.425246808512639E+000;-1.263882436608675E+002;
4.670070687131537E+009;-2.700412950729378E+000;-1.337112270326703E+002;
4.848415340857322E+009;-2.263704760957802E+000;-1.767840343109015E+002;
5.033570772758309E+009;-2.296052469024498E+000;1.118673127578917E+002;
5.225797078656734E+009;-2.471679734624521E+000;1.057171287108818E+001;
5.425364287136548E+009;-2.667447858923648E+000;-1.212862514086392E+002;
5.632552738864227E+009;-2.983275119167866E+000;7.506208509862007E+001;
5.847653480395394E+009;-3.097482930026685E+000;-1.210597791478817E+002;
6.070968673020469E+009;-3.112342108759464E+000;6.783605250061642E+000;
6.302812017223670E+009;-3.131258067578141E+000;9.829969716957795E+001;
6.543509193351618E+009;-2.895827984648842E+000;1.507063778115023E+002;
6.793398319110564E+009;-2.988752499044500E+000;1.635458031038889E+002;
7.052830424534919E+009;-3.102393390033182E+000;1.355966394904104E+002;
7.322169945094285E+009;-3.190821697179128E+000;6.833978732776559E+001;
7.601795233631680E+009;-3.189958255809718E+000;-4.517069471023787E+001;
7.892099091852097E+009;-2.984562197775181E+000;1.555443944670799E+002;
8.193489322108005E+009;-2.989832243516381E+000;-5.136312725809765E+001;
8.506389300256902E+009;-2.920691575036254E+000;5.228637665592643E+001;
8.831238570395649E+009;-3.030853529504469E+000;1.061541864134550E+002;
9.168493462307018E+009;-2.982037458299503E+000;1.041397598767427E+002;
9.518627732485830E+009;-3.245247881279288E+000;5.044680608207280E+001;
9.882133229645132E+009;-3.576692731968321E+000;-6.368345757078360E+001;
1.025952058563731E+010;-3.485830383885465E+000;1.254796623737892E+002;
1.065131993276066E+010;-3.511800679202082E+000;-1.077247882948914E+002;
1.105808164845913E+010;-3.942899247841627E+000;-4.401344457453758E+001;
1.148037712846121E+010;-3.943789603825941E+000;-4.627124087578468E+001;
1.191879958944423E+010;-3.967323471736776E+000;-1.197082181476406E+002;
1.237396490235132E+010;-4.098082875858665E+000;9.404286643740066E+001;
1.284651245753197E+010;-4.768879795027361E+000;-1.227688554327883E+002;
1.333710606292122E+010;-4.798153762342805E+000;-5.537760989200208E+001;
1.384643487651927E+010;-4.049853417432483E+000;-7.494793228923555E+001;
1.437521437448148E+010;-4.503420352415600E+000;-1.732451947948602E+002;
1.492418735617858E+010;-4.269394313144852E+000;-2.398531115392228E+000;
1.549412498763898E+010;-4.605315173331973E+000;7.935138902245593E+001;
1.608582788483898E+010;-4.672838754291924E+000;7.311369653394317E+001;
1.670012723836252E+010;-4.820316099009484E+000;-4.298335023247508E+001;
1.733788598101053E+010;-6.632450628291988E+000;1.099259291263793E+002;
1.800000000000000E+010;-7.662475027954986E+000;1.570551910835866E+002;
