# Version 1.00
#
freq[Hz];db:Trc1_S21;ang:Trc1_S21;
1.000000000000000E+007;-6.372800281280979E+001;1.558805207606027E+001;
1.038188855303029E+007;-6.657224761946834E+001;1.441292834754764E+001;
1.077836099275414E+007;-6.843535952210776E+001;1.851887965759774E+001;
1.118997426111024E+007;-6.340957963660873E+001;-4.834696641750774E+001;
1.161730656901240E+007;-6.600012197344115E+001;-2.359127778878480E+001;
1.206095820858735E+007;-6.358310944181982E+001;-6.417981827612142E+001;
1.252155239643097E+007;-6.506694810849237E+001;-6.092716273538463E+001;
1.299973614906757E+007;-6.333669764373983E+001;-1.063834583486010E+002;
1.349618119184187E+007;-6.377446650120746E+001;-1.073902316854627E+002;
1.401158490252058E+007;-6.430882422042605E+001;-1.175541834724361E+002;
1.454667129092905E+007;-6.269257079265536E+001;-1.406237174422516E+002;
1.510219201599907E+007;-6.267404349474639E+001;-1.595998926976421E+002;
1.567892744165662E+007;-6.214925129394674E+001;1.781075547012436E+002;
1.627768773303274E+007;-6.137400300259024E+001;1.517276954635884E+002;
1.689931399453742E+007;-5.981215433164438E+001;1.370246299142026E+002;
1.754467945139527E+007;-5.811377678557257E+001;1.157760212608891E+002;
1.821469067630263E+007;-5.824907529474945E+001;8.673967561490967E+001;
1.891028886292939E+007;-5.857329039464266E+001;6.682481841065082E+001;
1.963245114805428E+007;-5.722114541917492E+001;3.971196009862018E+001;
2.038219198419111E+007;-5.734561425475571E+001;1.437354989289103E+001;
2.116056456463395E+007;-5.689507625345109E+001;-9.949094533272289E+000;
2.196866230292316E+007;-5.648754787149959E+001;-4.479973063406062E+001;
2.280762036881060E+007;-5.572876328873866E+001;-6.586136648692420E+001;
2.367861728288153E+007;-5.558070678736569E+001;-9.641959437444315E+001;
2.458287657207330E+007;-5.514848953562187E+001;-1.280397067341403E+002;
2.552166848841643E+007;-5.456772117085349E+001;-1.592656769742108E+002;
2.649631179341245E+007;-5.428041973359688E+001;1.681406443481989E+002;
2.750817561055502E+007;-5.363403309388453E+001;1.349154418114270E+002;
2.855868134859682E+007;-5.310750097871870E+001;9.962255717228942E+001;
2.964930469826371E+007;-5.285612423371715E+001;6.433830295861385E+001;
3.078157770522112E+007;-5.246469524859455E+001;2.801000117007474E+001;
3.195709092220476E+007;-5.199373030942201E+001;-1.213268062055538E+001;
3.317749564333858E+007;-5.147829610788543E+001;-5.164810793250268E+001;
3.444450622377892E+007;-5.121404662085421E+001;-9.415443346327463E+001;
3.575990248794310E+007;-5.068279815103453E+001;-1.378719491157524E+002;
3.712553222970559E+007;-5.042096356200281E+001;1.748447466059843E+002;
3.854331380807376E+007;-5.006734332874963E+001;1.262912769955184E+002;
4.001523884198953E+007;-4.949696156907230E+001;7.732459550256071E+001;
4.154337500804243E+007;-4.899873847141795E+001;2.667317227127188E+001;
4.312986894502404E+007;-4.846999748956581E+001;-2.661687639900615E+001;
4.477694926940417E+007;-4.803429388210233E+001;-7.994307536984836E+001;
4.648692970596453E+007;-4.755237425320129E+001;-1.361744917713261E+002;
4.826221233798770E+007;-4.710413193631698E+001;1.661705847228857E+002;
5.010529098156718E+007;-4.665770087633530E+001;1.063034040364891E+002;
5.201875468877842E+007;-4.615289179570087E+001;4.193502589138492E+001;
5.400529138463195E+007;-4.552281042574996E+001;-2.544281217945379E+001;
5.606769164291760E+007;-4.528321185255256E+001;-9.661565049710661E+001;
5.820885260624383E+007;-4.475929160658501E+001;-1.700700987913286E+002;
6.043178205577903E+007;-4.417096026362707E+001;1.146513477481215E+002;
6.273960263641138E+007;-4.355654895007424E+001;3.832975414634124E+001;
6.513555624326284E+007;-4.305428922346263E+001;-4.118262011553270E+001;
6.762300857571912E+007;-4.275870827743484E+001;-1.252747599283067E+002;
7.020545386537276E+007;-4.262582185230709E+001;1.463341896737902E+002;
7.288651978452097E+007;-4.244363217835796E+001;5.228724537436983E+001;
7.566997254211341E+007;-4.198297611730645E+001;-4.353587311465507E+001;
7.855972217430838E+007;-4.174532323199568E+001;-1.403377843262525E+002;
8.155982803706922E+007;-4.178304856091665E+001;1.197129541229912E+002;
8.467450450851679E+007;-4.201295160623538E+001;1.501395596122797E+001;
8.790812690904823E+007;-4.176036575376610E+001;-9.521655740424424E+001;
9.126523764753820E+007;-4.165480910017789E+001;1.519225901115583E+002;
9.475055260225661E+007;-4.185352264411351E+001;3.787977735966096E+001;
9.836896774546625E+007;-4.201659151341881E+001;-8.286249161367610E+001;
1.021255660210062E+008;-4.190249170727858E+001;1.491190640626751E+002;
1.060256244845224E+008;-4.270778687458626E+001;3.148870884073110E+001;
1.100746217163751E+008;-4.228741234203130E+001;-1.047956743345589E+002;
1.142782455176374E+008;-4.230497216580595E+001;1.094157604805404E+002;
1.186424008999945E+008;-4.221551585752581E+001;-3.361169766446344E+001;
1.231732183807684E+008;-4.238210016559182E+001;-1.739506483747090E+002;
1.278770625947199E+008;-4.257295672588494E+001;2.388729274702673E+001;
1.327605412347261E+008;-4.259813257563751E+001;-1.379260241614243E+002;
1.378305143338909E+008;-4.269550281059598E+001;6.607423153356889E+001;
1.430941039021300E+008;-4.321250220878489E+001;-1.180133278772438E+002;
1.485587039307650E+008;-4.578222452976119E+001;5.641425191002898E+001;
1.542319907791826E+008;-4.302095599453410E+001;-1.005846064211164E+002;
1.601219339581469E+008;-4.299480512615189E+001;5.597147344748560E+001;
1.662368073249158E+008;-4.316888209867345E+001;-1.592462606279896E+002;
1.725852007058845E+008;-4.295090938038005E+001;-9.650669219549549E+000;
1.791760319630858E+008;-4.400502566419829E+001;1.183065137042980E+002;
1.860185595214950E+008;-4.410224093732040E+001;-1.684471801675934E+002;
1.931223953747393E+008;-5.658792155263406E+001;6.979498056500312E+001;
2.004975185874796E+008;-4.414675013369129E+001;-9.255697913503917E+001;
2.081542893134333E+008;-4.445958872340802E+001;1.574797548605585E+002;
2.161034633487289E+008;-5.200220847785653E+001;-5.578714879193743E+001;
2.243562072410370E+008;-4.473137339984343E+001;1.043340057392221E+002;
2.329241139757013E+008;-4.507714597641363E+001;1.656126435528628E+002;
2.418192192609057E+008;-4.346635433762833E+001;4.612537915448727E+001;
2.510540184347519E+008;-4.754351202292530E+001;5.990352640916305E+001;
2.606414840180006E+008;-4.932334219891894E+001;-1.080409233409798E+002;
2.705950839371309E+008;-4.588813096586458E+001;1.639977545154194E+002;
2.809288004433170E+008;-4.579290803095648E+001;1.167753307526152E+002;
2.916571497539004E+008;-4.431805461306416E+001;8.295119320189548E+001;
3.027952024439460E+008;-5.185663052390404E+001;-5.291228015085525E+001;
3.143586046165293E+008;-4.643494544041036E+001;-1.553129939950732E+002;
3.263635998814921E+008;-5.574178222020066E+001;6.488423493491871E+001;
3.388270521735421E+008;-4.685727302823805E+001;-1.322276612967688E+002;
3.517664694417494E+008;-5.397316383061089E+001;3.358389451029204E+001;
3.652000282437178E+008;-4.705622888440441E+001;4.417327809652260E+001;
3.791465992789793E+008;-4.913740432900519E+001;-1.108094146565651E+002;
3.936257738974798E+008;-4.882357570555171E+001;7.972236967901672E+001;
4.086578916203936E+008;-4.843524506595145E+001;1.734000772104635E+002;
4.242640687119258E+008;-4.557555777234964E+001;-5.812642777155124E+001;
4.404662278422399E+008;-5.076601391313783E+001;5.694327915503028E+001;
4.572871288831783E+008;-5.084840229776309E+001;8.870137089593342E+001;
4.747504008800356E+008;-5.318825606193428E+001;-1.367996537812379E+002;
4.928805752442984E+008;-4.859322546850631E+001;1.448069648528912E+002;
5.117031202139767E+008;-5.784297102329069E+001;-1.127516328291424E+002;
5.312444766299368E+008;-5.201873141108569E+001;5.047651237229852E+001;
5.515320950784909E+008;-5.627161752154456E+001;-1.561267183073969E+001;
5.725944744524199E+008;-6.123029364807987E+001;6.456806451696528E+001;
5.944612019845973E+008;-5.397493447003850E+001;8.332791460047875E+001;
6.171629948104519E+008;-6.212760300542517E+001;8.687252995556870E+001;
6.407317431176524E+008;-4.908458070078328E+001;-1.189967626948008E+002;
6.652005549436301E+008;-5.363726947881872E+001;1.181512471401846E+002;
6.906038026838671E+008;-5.147849149453716E+001;-5.050652682486278E+001;
7.169771713762831E+008;-6.241473823029472E+001;-1.721625353497941E+002;
7.443577088295471E+008;-6.237400261602137E+001;-1.452690780640130E+002;
7.727838776657330E+008;-5.410520476917957E+001;4.283536921758047E+000;
8.022956093504235E+008;-5.007547766817459E+001;1.633402382239171E+002;
8.329343602861624E+008;-5.212305230608426E+001;7.394142820249994E+001;
8.647431700480518E+008;-8.115431673590445E+001;2.126475510036529E+001;
8.977667218432996E+008;-6.130819842419506E+001;1.661461322226009E+002;
9.320514052796482E+008;-6.048648825891308E+001;-2.741484498935997E+001;
9.676453815308577E+008;-5.464186428465440E+001;3.432102649796149E+001;
1.004598650990784E+009;-6.284507894474604E+001;-6.102331668543432E+001;
1.042963123511089E+009;-5.339391914464753E+001;1.449084839011112E+002;
1.082792691321250E+009;-5.351368906010924E+001;-1.575160716763193E+002;
1.124143304733295E+009;-5.682637916732365E+001;-8.273624064838865E+001;
1.167073050737623E+009;-6.784850986231918E+001;1.744561107957365E+002;
1.211642234600307E+009;-5.625998632495292E+001;-1.966384593169887E+001;
1.257913464576497E+009;-5.299018889496567E+001;-8.009089741305073E+001;
1.305951739858941E+009;-5.238735921619477E+001;-1.147856301483041E+002;
1.355824541885154E+009;-5.366866775103807E+001;-3.426431950840197E+001;
1.407601929131501E+009;-5.444119771977299E+001;1.559217421687693E+002;
1.461356635527369E+009;-5.479795935055847E+001;-1.485790966326612E+002;
1.517164172627645E+009;-5.249714760569187E+001;-7.975149223246613E+001;
1.575102935687062E+009;-6.639164627504846E+001;-4.415965121022858E+001;
1.635254313785392E+009;-4.972960823750960E+001;7.494647730182928E+001;
1.697702804158197E+009;-4.926902707381878E+001;7.706148919476145E+001;
1.762536130893741E+009;-5.145028637250231E+001;8.215450048784263E+001;
1.829845368162803E+009;-5.112178784694870E+001;1.143261410838896E+002;
1.899725068154491E+009;-4.986334286220679E+001;3.950072346189604E+001;
1.972273393897780E+009;-5.098728767523458E+001;9.131492465670591E+001;
2.047592257155356E+009;-4.880936033597725E+001;-1.507746236461558E+001;
2.125787461583465E+009;-4.519704543648430E+001;7.058693509393085E+001;
2.206968851358869E+009;-6.627313262006132E+001;-4.896062819497649E+001;
2.291250465481706E+009;-4.885828461753015E+001;-7.786947084424776E+001;
2.378750697970985E+009;-4.572913583829280E+001;-1.482902089035896E+002;
2.469592464177779E+009;-5.632455040420162E+001;-6.675828844652260E+001;
2.563903373449715E+009;-4.025520516435030E+001;2.477750212724416E+001;
2.661815908389335E+009;-3.980941045643071E+001;-3.762161962343650E+001;
2.763467610958116E+009;-4.038560805315869E+001;1.497687202944732E+002;
2.869001275687604E+009;-3.781682097941337E+001;-1.030427564424916E+002;
2.978565150269043E+009;-4.374125532733689E+001;-1.332969971805556E+002;
3.092313143803313E+009;-3.263538493929988E+001;1.128123892480267E+002;
3.210405043003673E+009;-3.835664149755407E+001;1.464635899079688E+002;
3.333006736655056E+009;-4.514160083018386E+001;3.397950168580612E+000;
3.460290448645197E+009;-4.924825914728197E+001;-1.322088087045333E+002;
3.592434979894962E+009;-5.534827226562020E+001;-1.753069165635543E+002;
3.729625959527711E+009;-4.365803101167000E+001;7.172066914820697E+001;
3.872056105630537E+009;-3.996870600357175E+001;9.622280894099202E+001;
4.019925495973672E+009;-3.948370427525352E+001;7.376694542183181E+001;
4.173441849068368E+009;-3.689199612447482E+001;2.329347077545099E+001;
4.332820815958047E+009;-3.711987800715567E+001;-4.416214557809714E+000;
4.498286283152621E+009;-3.182278727142892E+001;-1.170589447333020E+002;
4.670070687131537E+009;-3.649627829098979E+001;5.486268646047700E+001;
4.848415340857322E+009;-3.916198842534930E+001;-1.100741737530388E+002;
5.033570772758309E+009;-4.747461724389589E+001;8.608369387602956E+001;
5.225797078656734E+009;-4.360206004346735E+001;-1.540464432792001E+002;
5.425364287136548E+009;-3.520148292993780E+001;-1.061970773206184E+002;
5.632552738864227E+009;-3.614390182572072E+001;-7.638395059301664E+001;
5.847653480395394E+009;-3.282920209253315E+001;-7.978543497444150E+001;
6.070968673020469E+009;-5.494504541248625E+001;-7.646334507321210E+001;
6.302812017223670E+009;-3.422286146566908E+001;2.746205668870197E+001;
6.543509193351618E+009;-3.614790734606005E+001;-1.232388488888267E+002;
6.793398319110564E+009;-3.926057480289754E+001;1.458970064917084E+002;
7.052830424534919E+009;-5.636183865188015E+001;1.744031749213992E+002;
7.322169945094285E+009;-3.282760450246499E+001;-1.725135350617322E+002;
7.601795233631680E+009;-5.372458681763961E+001;-1.345537677643338E+002;
7.892099091852097E+009;-4.660500082547462E+001;-5.578532965404490E+000;
8.193489322108005E+009;-4.503607324241868E+001;-1.446782464465671E+001;
8.506389300256902E+009;-5.028257063141771E+001;-9.879600466126422E+001;
8.831238570395649E+009;-4.068943459356182E+001;2.404727933371342E+001;
9.168493462307018E+009;-3.817591790926308E+001;8.977392481629520E+000;
9.518627732485830E+009;-3.573255855411044E+001;1.627210658415652E+002;
9.882133229645132E+009;-2.522298643458692E+001;-1.310643578723746E+002;
1.025952058563731E+010;-2.790200604268538E+001;1.657024843192613E+002;
1.065131993276066E+010;-3.126703972832502E+001;6.396667519376737E+001;
1.105808164845913E+010;-2.627419757598984E+001;-1.009376915169826E+002;
1.148037712846121E+010;-3.800157223075075E+001;-1.883046806598929E+001;
1.191879958944423E+010;-4.459048201943831E+001;1.771498989995448E+002;
1.237396490235132E+010;-3.790588077107313E+001;-1.152314725634616E+002;
1.284651245753197E+010;-4.945169656232216E+001;1.153133734621815E+002;
1.333710606292122E+010;-3.593959628171556E+001;-2.968341280093716E+001;
1.384643487651927E+010;-3.042576024361466E+001;-7.347496481335260E+000;
1.437521437448148E+010;-3.694941701800300E+001;-1.452772959733914E+002;
1.492418735617858E+010;-2.996753840962125E+001;1.018817304624919E+002;
1.549412498763898E+010;-3.290269957478932E+001;1.466444664579119E+002;
1.608582788483898E+010;-3.379664127640184E+001;9.976083884289446E+001;
1.670012723836252E+010;-3.077892097895143E+001;-4.702246359436592E+001;
1.733788598101053E+010;-3.907438666785905E+001;1.436676808325864E+002;
1.800000000000000E+010;-3.404417038811260E+001;-1.206693546995267E+000;
