# Version 1.00
#
freq[Hz];db:Trc1_S21;ang:Trc1_S21;
1.000000000000000E+007;-9.181556012036626E-002;-3.033039070396692E+001;
1.038188855303029E+007;-1.173134673568614E-001;-3.137904861335425E+001;
1.077836099275414E+007;-1.041670303437448E-001;-3.149837339912176E+001;
1.118997426111024E+007;-3.243590174223518E-001;-3.410048549506399E+001;
1.161730656901240E+007;-1.416682018390041E-001;-3.414363999043644E+001;
1.206095820858735E+007;-6.744398314141141E-002;-3.600564171836161E+001;
1.252155239643097E+007;-1.200001740832258E-001;-3.775287790368065E+001;
1.299973614906757E+007;-1.334912043335791E-001;-3.862149502190844E+001;
1.349618119184187E+007;-3.935852857198447E-002;-4.057689888194453E+001;
1.401158490252058E+007;-2.905246595966500E-002;-4.183139254481970E+001;
1.454667129092905E+007;-1.763950963409883E-001;-4.379031919815150E+001;
1.510219201599907E+007;-2.479306686598760E-001;-4.447590365566712E+001;
1.567892744165662E+007;-9.964479999256390E-002;-4.723092835786966E+001;
1.627768773303274E+007;-1.532007197295772E-001;-4.831068485623732E+001;
1.689931399453742E+007;-4.895230139363406E-002;-5.012637326725237E+001;
1.754467945139527E+007;-6.295647095294954E-002;-5.235941397426139E+001;
1.821469067630263E+007;-1.763391073984467E-001;-5.393447390646160E+001;
1.891028886292939E+007;-1.205741540954753E-001;-5.607131007778511E+001;
1.963245114805428E+007;-1.363001913234281E-001;-5.900118166143253E+001;
2.038219198419111E+007;-1.131073478878895E-001;-6.090667617746604E+001;
2.116056456463395E+007;-1.443991953244252E-001;-6.270749445856202E+001;
2.196866230292316E+007;-1.461937848563906E-001;-6.571348677441006E+001;
2.280762036881060E+007;-1.145382407859123E-001;-6.773444905187262E+001;
2.367861728288153E+007;-1.116370422204556E-001;-7.086986501119581E+001;
2.458287657207330E+007;-9.650553299309805E-002;-7.340378862508231E+001;
2.552166848841643E+007;-9.393959611209246E-002;-7.606131797324960E+001;
2.649631179341245E+007;-1.272783648009494E-001;-7.916310972041713E+001;
2.750817561055502E+007;-1.267911828515134E-001;-8.202867306015796E+001;
2.855868134859682E+007;-1.364645945785514E-001;-8.513012001580921E+001;
2.964930469826371E+007;-9.986014249598452E-002;-8.867154519584854E+001;
3.078157770522112E+007;-1.387104260663070E-001;-9.160813649298038E+001;
3.195709092220476E+007;-1.418492883642518E-001;-9.534003257673230E+001;
3.317749564333858E+007;-1.379755702315635E-001;-9.901576579129551E+001;
3.444450622377892E+007;-1.533369569745363E-001;-1.028436067013292E+002;
3.575990248794310E+007;-1.629542569512178E-001;-1.064765478913908E+002;
3.712553222970559E+007;-1.475743009852656E-001;-1.107412026897844E+002;
3.854331380807376E+007;-1.682937825972077E-001;-1.147440323419880E+002;
4.001523884198953E+007;-1.895395039855424E-001;-1.193405789276676E+002;
4.154337500804243E+007;-1.732099386311231E-001;-1.234825704590741E+002;
4.312986894502404E+007;-1.619608667495331E-001;-1.284111745218347E+002;
4.477694926940417E+007;-1.454287506549145E-001;-1.331600268044457E+002;
4.648692970596453E+007;-1.674558472160175E-001;-1.385759667784260E+002;
4.826221233798770E+007;-1.421507864112085E-001;-1.438624332486937E+002;
5.010529098156718E+007;-1.753619617249682E-001;-1.493099344702860E+002;
5.201875468877842E+007;-1.967993534948836E-001;-1.550265300888475E+002;
5.400529138463195E+007;-1.756900785005030E-001;-1.607608474119492E+002;
5.606769164291760E+007;-1.727714990741728E-001;-1.668780494214238E+002;
5.820885260624383E+007;-1.998835371024265E-001;-1.732051420605083E+002;
6.043178205577903E+007;-1.433640141640859E-001;1.799757948084124E+002;
6.273960263641138E+007;-2.000063845956178E-001;1.730992973602996E+002;
6.513555624326284E+007;-2.209475676560101E-001;1.660932117283017E+002;
6.762300857571912E+007;-2.126425025735351E-001;1.586804003944330E+002;
7.020545386537276E+007;-2.248572718211904E-001;1.512062057006516E+002;
7.288651978452097E+007;-2.048329480392654E-001;1.431097701271582E+002;
7.566997254211341E+007;-1.964475501896510E-001;1.349128693386337E+002;
7.855972217430838E+007;-2.527822076810009E-001;1.263019655270025E+002;
8.155982803706922E+007;-2.200621260453295E-001;1.173919479284210E+002;
8.467450450851679E+007;-2.337207002324676E-001;1.080308278694849E+002;
8.790812690904823E+007;-2.225254896122041E-001;9.850228932619916E+001;
9.126523764753820E+007;-2.325475616589699E-001;8.858370682639439E+001;
9.475055260225661E+007;-2.254028670668802E-001;7.827049269351311E+001;
9.836896774546625E+007;-2.352673077126521E-001;6.750382265824568E+001;
1.021255660210062E+008;-2.445083966237940E-001;5.650653258408251E+001;
1.060256244845224E+008;-2.446046659384849E-001;4.476852800197239E+001;
1.100746217163751E+008;-2.516858757092716E-001;3.272744152170204E+001;
1.142782455176374E+008;-2.613681752760695E-001;2.027068870161121E+001;
1.186424008999945E+008;-2.641717622862712E-001;7.459052674469051E+000;
1.231732183807684E+008;-2.786201781498203E-001;-5.999047641667461E+000;
1.278770625947199E+008;-2.684466117579732E-001;-2.002052785873435E+001;
1.327605412347261E+008;-2.768238483657070E-001;-3.453875152904169E+001;
1.378305143338909E+008;-2.818371109854151E-001;-4.950305639500184E+001;
1.430941039021300E+008;-2.810494996852769E-001;-6.514292593825306E+001;
1.485587039307650E+008;-2.877363749806674E-001;-8.129900275828705E+001;
1.542319907791826E+008;-2.926761866007573E-001;-9.813569988091382E+001;
1.601219339581469E+008;-3.046609347433404E-001;-1.156557831418214E+002;
1.662368073249158E+008;-3.070077542246217E-001;-1.337525795938136E+002;
1.725852007058845E+008;-3.126545801491788E-001;-1.525924313777259E+002;
1.791760319630858E+008;-3.175575799222109E-001;-1.720680436613442E+002;
1.860185595214950E+008;-3.242213179741827E-001;1.676189153388967E+002;
1.931223953747393E+008;-3.339520394328439E-001;1.465304122552376E+002;
2.004975185874796E+008;-3.453374527819294E-001;1.247114504630714E+002;
2.081542893134333E+008;-3.451626545745163E-001;1.019802609272519E+002;
2.161034633487289E+008;-3.615836628011667E-001;7.850508849425125E+001;
2.243562072410370E+008;-3.520690171014873E-001;5.399548397892119E+001;
2.329241139757013E+008;-3.684011516061710E-001;2.858085973217467E+001;
2.418192192609057E+008;-3.764228327855583E-001;2.211682003131446E+000;
2.510540184347519E+008;-3.776549523725261E-001;-2.513287745941961E+001;
2.606414840180006E+008;-3.894511181328121E-001;-5.352319024663074E+001;
2.705950839371309E+008;-3.976271324558977E-001;-8.305226755363735E+001;
2.809288004433170E+008;-4.019558856778202E-001;-1.136588019108607E+002;
2.916571497539004E+008;-4.122848686411243E-001;-1.454206918871359E+002;
3.027952024439460E+008;-4.154495289820812E-001;-1.784202781147509E+002;
3.143586046165293E+008;-4.294709083801467E-001;1.473288010093934E+002;
3.263635998814921E+008;-4.352210984404911E-001;1.117263464341370E+002;
3.388270521735421E+008;-4.484720674961810E-001;7.483786718627610E+001;
3.517664694417494E+008;-4.483897964544858E-001;3.652014691354115E+001;
3.652000282437178E+008;-4.580009721412439E-001;-3.306185426489431E+000;
3.791465992789793E+008;-4.676152972696174E-001;-4.458171207137224E+001;
3.936257738974798E+008;-4.760839182010641E-001;-8.753205376570499E+001;
4.086578916203936E+008;-4.930619000257361E-001;-1.320290505567355E+002;
4.242640687119258E+008;-5.023656648166813E-001;-1.782615844934153E+002;
4.404662278422399E+008;-5.046270252140106E-001;1.337817928876151E+002;
4.572871288831783E+008;-5.131681408176160E-001;8.396497019164258E+001;
4.747504008800356E+008;-5.243966768396540E-001;3.219821709696544E+001;
4.928805752442984E+008;-5.406123788339267E-001;-2.146855855441011E+001;
5.117031202139767E+008;-5.444834003152377E-001;-7.720530938527118E+001;
5.312444766299368E+008;-5.570537745894645E-001;-1.351102686563481E+002;
5.515320950784909E+008;-5.686842266490565E-001;1.648632505122757E+002;
5.725944744524199E+008;-5.814008146249954E-001;1.024837776605708E+002;
5.944612019845973E+008;-5.883841560899983E-001;3.772087420333627E+001;
6.171629948104519E+008;-6.026312464843753E-001;-2.951630252183132E+001;
6.407317431176524E+008;-6.147334943699645E-001;-9.931732563695299E+001;
6.652005549436301E+008;-6.291295045658318E-001;-1.717574653184131E+002;
6.906038026838671E+008;-6.378463321399023E-001;1.130009021900268E+002;
7.169771713762831E+008;-6.493335970418830E-001;3.493809437546309E+001;
7.443577088295471E+008;-6.605315750232000E-001;-4.614584789922429E+001;
7.727838776657330E+008;-6.764752357432425E-001;-1.303294936258594E+002;
8.022956093504235E+008;-6.876220795388662E-001;1.423423369860753E+002;
8.329343602861624E+008;-6.989207839038623E-001;5.165604068222260E+001;
8.647431700480518E+008;-7.133410166853880E-001;-4.255426253593073E+001;
8.977667218432996E+008;-7.317069200653905E-001;-1.403586614089720E+002;
9.320514052796482E+008;-7.450309679081755E-001;1.181527456085463E+002;
9.676453815308577E+008;-7.590335762408839E-001;1.274662066616106E+001;
1.004598650990784E+009;-7.763598266107616E-001;-9.663259602772186E+001;
1.042963123511089E+009;-7.907776512211527E-001;1.498331555006220E+002;
1.082792691321250E+009;-8.055748329863541E-001;3.189184571273285E+001;
1.124143304733295E+009;-8.198543214924249E-001;-9.052441545767906E+001;
1.167073050737623E+009;-8.343130955210194E-001;1.423972024186793E+002;
1.211642234600307E+009;-8.548562412156836E-001;1.041890989326645E+001;
1.257913464576497E+009;-8.707260083337605E-001;-1.265202382890622E+002;
1.305951739858941E+009;-8.872836959049678E-001;9.126303859847074E+001;
1.355824541885154E+009;-9.072901061717305E-001;-5.637384881965063E+001;
1.407601929131501E+009;-9.167707969922897E-001;1.503662284441169E+002;
1.461356635527369E+009;-9.460359855740508E-001;-8.746845460376047E+000;
1.517164172627645E+009;-9.602147553400967E-001;-1.739742836587361E+002;
1.575102935687062E+009;-9.777182603509786E-001;1.446888812486096E+001;
1.635254313785392E+009;-9.990114348029420E-001;-1.635298775837196E+002;
1.697702804158197E+009;-1.022352677027779E+000;1.162619953193859E+001;
1.762536130893741E+009;-1.050630676306599E+000;1.797761292631434E+002;
1.829845368162803E+009;-1.072869980895730E+000;-1.946932974026728E+001;
1.899725068154491E+009;-1.088421440911315E+000;1.338033218752264E+002;
1.972273393897780E+009;-1.112494277921103E+000;-8.104580449280378E+001;
2.047592257155356E+009;-1.134461020821226E+000;5.603737074004817E+001;
2.125787461583465E+009;-1.166946810563809E+000;-1.754124996894840E+002;
2.206968851358869E+009;-1.189116651138633E+000;-5.570215297502595E+001;
2.291250465481706E+009;-1.205596279227152E+000;5.492884851829736E+001;
2.378750697970985E+009;-1.241701009805437E+000;1.560091614965130E+002;
2.469592464177779E+009;-1.251957492543528E+000;-1.129012630996178E+002;
2.563903373449715E+009;-1.275306517668787E+000;-3.194907968406922E+001;
2.661815908389335E+009;-1.313942358380828E+000;3.825731660553350E+001;
2.763467610958116E+009;-1.337510383260863E+000;9.741086056919447E+001;
2.869001275687604E+009;-1.345961958314978E+000;1.450207825120401E+002;
2.978565150269043E+009;-1.391079165316977E+000;-1.791671799425619E+002;
3.092313143803313E+009;-1.430255248883402E+000;-1.558386816719127E+002;
3.210405043003673E+009;-1.467940894993959E+000;-1.452915258904095E+002;
3.333006736655056E+009;-1.516636813141004E+000;-1.481800461377420E+002;
3.460290448645197E+009;-1.540139599797640E+000;-1.648170292172007E+002;
3.592434979894962E+009;-1.572910946686889E+000;1.641378844964296E+002;
3.729625959527711E+009;-1.625879754411224E+000;1.180438326500374E+002;
3.872056105630537E+009;-1.643474043567208E+000;5.662839813917864E+001;
4.019925495973672E+009;-1.673172335851355E+000;-2.100895692936253E+001;
4.173441849068368E+009;-1.722814597487475E+000;-1.154114102520841E+002;
4.332820815958047E+009;-1.750971185117236E+000;1.330062143790864E+002;
4.498286283152621E+009;-1.814334245875370E+000;3.346640521957050E+000;
4.670070687131537E+009;-1.883109864265577E+000;-1.450330448046565E+002;
4.848415340857322E+009;-1.903467687401418E+000;4.711999667426955E+001;
5.033570772758309E+009;-2.011562681711747E+000;-1.407688589563139E+002;
5.225797078656734E+009;-2.112472647819216E+000;1.038586111841850E+001;
5.425364287136548E+009;-2.105236079581303E+000;1.399409951127289E+002;
5.632552738864227E+009;-2.249855199649623E+000;-1.130625942044542E+002;
5.847653480395394E+009;-2.373282717770942E+000;-2.924112441862337E+001;
6.070968673020469E+009;-2.461422700154408E+000;3.044174145056676E+001;
6.302812017223670E+009;-2.538363685708988E+000;6.476802888781741E+001;
6.543509193351618E+009;-2.632861025424276E+000;7.317491483382780E+001;
6.793398319110564E+009;-2.645726412702997E+000;5.478370821286987E+001;
7.052830424534919E+009;-2.569304027285435E+000;7.676592480683205E+000;
7.322169945094285E+009;-2.586478293819470E+000;-6.913275324960378E+001;
7.601795233631680E+009;-2.552847533910096E+000;-1.762766551402914E+002;
7.892099091852097E+009;-2.512669532662588E+000;4.423846219136264E+001;
8.193489322108005E+009;-2.598137016006064E+000;-1.278407257571438E+002;
8.506389300256902E+009;-2.592630762118901E+000;2.615437424868928E+001;
8.831238570395649E+009;-2.647396884707379E+000;1.447488028059593E+002;
9.168493462307018E+009;-2.695039673763854E+000;-1.332563411675410E+002;
9.518627732485830E+009;-2.805545217733987E+000;-8.998263688224874E+001;
9.882133229645132E+009;-2.877932290570007E+000;-8.531043891604227E+001;
1.025952058563731E+010;-2.941337903739939E+000;-1.218576320637448E+002;
1.065131993276066E+010;-3.216938075242669E+000;1.578443861596448E+002;
1.105808164845913E+010;-3.497526257399973E+000;3.515218989458995E+001;
1.148037712846121E+010;-3.700155116252335E+000;-1.298149785674364E+002;
1.191879958944423E+010;-3.476722382946100E+000;1.286702228861880E+001;
1.237396490235132E+010;-3.336287935866120E+000;1.055960111655202E+002;
1.284651245753197E+010;-3.354092653247805E+000;1.464016420832062E+002;
1.333710606292122E+010;-3.408366566486818E+000;1.342904604535066E+002;
1.384643487651927E+010;-3.516745621350237E+000;6.720263314777230E+001;
1.437521437448148E+010;-3.655596388780671E+000;-5.757044387084885E+001;
1.492418735617858E+010;-3.698303081838637E+000;1.181787852769629E+002;
1.549412498763898E+010;-3.777762519923446E+000;-1.284657445607027E+002;
1.608582788483898E+010;-3.846553585675569E+000;-8.019923869974866E+001;
1.670012723836252E+010;-3.921565112651097E+000;-9.831262621867298E+001;
1.733788598101053E+010;-4.231804896663939E+000;1.737373448359725E+002;
1.800000000000000E+010;-4.395408726167832E+000;1.537608937783894E+001;
