# Version 1.00
#
freq[Hz];db:Trc1_S21;ang:Trc1_S21;
1.000000000000000E+007;-1.130994464039100E-001;-2.876663157392930E+001;
1.038188855303029E+007;-8.564223552538797E-002;-2.982727959011014E+001;
1.077836099275414E+007;-1.030251978963450E-001;-2.957110834138313E+001;
1.118997426111024E+007;-3.338459414315431E-001;-3.246566602698772E+001;
1.161730656901240E+007;-1.049890414554611E-001;-3.226706170178009E+001;
1.206095820858735E+007;-1.063585344513414E-001;-3.371593657183735E+001;
1.252155239643097E+007;-1.210461015449976E-001;-3.560095053331088E+001;
1.299973614906757E+007;-1.176350159298042E-001;-3.625214622930672E+001;
1.349618119184187E+007;-6.897708747037756E-002;-3.818213049621462E+001;
1.401158490252058E+007;-3.307749733172795E-002;-3.958260784012047E+001;
1.454667129092905E+007;-1.792403034189560E-001;-4.133214184488025E+001;
1.510219201599907E+007;-2.484273398856987E-001;-4.184192111808862E+001;
1.567892744165662E+007;-9.519372911526478E-002;-4.445039185414674E+001;
1.627768773303274E+007;-1.281364054956143E-001;-4.564953066608192E+001;
1.689931399453742E+007;-4.562731970692045E-002;-4.720058056067936E+001;
1.754467945139527E+007;-6.752355261004751E-002;-4.950680302151412E+001;
1.821469067630263E+007;-1.722721862270189E-001;-5.096376912981344E+001;
1.891028886292939E+007;-1.274348709862853E-001;-5.306072927946602E+001;
1.963245114805428E+007;-1.531153878849375E-001;-5.580204089327033E+001;
2.038219198419111E+007;-1.235676488178703E-001;-5.746574665008617E+001;
2.116056456463395E+007;-1.363815931001904E-001;-5.915066757725903E+001;
2.196866230292316E+007;-1.255009393032246E-001;-6.195562692401727E+001;
2.280762036881060E+007;-1.232792743241485E-001;-6.382991661177611E+001;
2.367861728288153E+007;-1.040717936398570E-001;-6.672640263120050E+001;
2.458287657207330E+007;-8.533180814206653E-002;-6.922437987873235E+001;
2.552166848841643E+007;-1.117450363106588E-001;-7.168572153869840E+001;
2.649631179341245E+007;-1.244460525322149E-001;-7.469445873296723E+001;
2.750817561055502E+007;-1.102448454582359E-001;-7.731016129968728E+001;
2.855868134859682E+007;-1.199145276550143E-001;-8.029356291529803E+001;
2.964930469826371E+007;-9.288988674191505E-002;-8.370451434435866E+001;
3.078157770522112E+007;-1.460646662164863E-001;-8.637055687609990E+001;
3.195709092220476E+007;-1.350000816241703E-001;-8.986239036143961E+001;
3.317749564333858E+007;-1.384550312302296E-001;-9.337379210014260E+001;
3.444450622377892E+007;-1.550441669914853E-001;-9.700887821495407E+001;
3.575990248794310E+007;-1.542421710225910E-001;-1.003605553183360E+002;
3.712553222970559E+007;-1.461276939912244E-001;-1.044310870195130E+002;
3.854331380807376E+007;-1.659367691533261E-001;-1.082703847814041E+002;
4.001523884198953E+007;-1.919541053539245E-001;-1.125599615527376E+002;
4.154337500804243E+007;-1.650723505667063E-001;-1.164944427701808E+002;
4.312986894502404E+007;-1.616360960710114E-001;-1.211419594482422E+002;
4.477694926940417E+007;-1.407030810497841E-001;-1.255751878629876E+002;
4.648692970596453E+007;-1.610557268312397E-001;-1.307123367675245E+002;
4.826221233798770E+007;-1.400566793732950E-001;-1.356730964815789E+002;
5.010529098156718E+007;-1.624431125422142E-001;-1.408096882358186E+002;
5.201875468877842E+007;-1.933885222795390E-001;-1.462397813357678E+002;
5.400529138463195E+007;-1.693439248543595E-001;-1.516032364000372E+002;
5.606769164291760E+007;-1.688855120000405E-001;-1.574246395032980E+002;
5.820885260624383E+007;-1.990588927541605E-001;-1.634253966654972E+002;
6.043178205577903E+007;-1.326579680255850E-001;-1.697895208195976E+002;
6.273960263641138E+007;-1.949384813400793E-001;-1.763030486799373E+002;
6.513555624326284E+007;-2.132982414313031E-001;1.770796918420151E+002;
6.762300857571912E+007;-2.099795011537654E-001;1.700881423132189E+002;
7.020545386537276E+007;-2.192967014788549E-001;1.630941485351580E+002;
7.288651978452097E+007;-1.978695337819117E-001;1.554337059906506E+002;
7.566997254211341E+007;-1.822268277606134E-001;1.477409529780622E+002;
7.855972217430838E+007;-2.432628009463773E-001;1.395815723264945E+002;
8.155982803706922E+007;-2.098058142011495E-001;1.311591166865018E+002;
8.467450450851679E+007;-2.247468905559109E-001;1.223368921481016E+002;
8.790812690904823E+007;-2.108485657770285E-001;1.133651932647220E+002;
9.126523764753820E+007;-2.226218434742064E-001;1.040170651376106E+002;
9.475055260225661E+007;-2.216445791759115E-001;9.424388067480425E+001;
9.836896774546625E+007;-2.239272215827269E-001;8.410972081676630E+001;
1.021255660210062E+008;-2.332013782237264E-001;7.375768721918206E+001;
1.060256244845224E+008;-2.347592588414363E-001;6.265392308145885E+001;
1.100746217163751E+008;-2.386397980082478E-001;5.131108012869834E+001;
1.142782455176374E+008;-2.485999614301528E-001;3.954609651548659E+001;
1.186424008999945E+008;-2.523412797367979E-001;2.747004219051288E+001;
1.231732183807684E+008;-2.684321535980693E-001;1.476352765316045E+001;
1.278770625947199E+008;-2.573620626273313E-001;1.561840324954002E+000;
1.327605412347261E+008;-2.637445233962640E-001;-1.214251059949804E+001;
1.378305143338909E+008;-2.740500452639591E-001;-2.625334517432284E+001;
1.430941039021300E+008;-2.674194280262380E-001;-4.101565140062361E+001;
1.485587039307650E+008;-2.782077270171753E-001;-5.625711361886184E+001;
1.542319907791826E+008;-2.814353000626165E-001;-7.212267690601614E+001;
1.601219339581469E+008;-2.909982823986740E-001;-8.865139698228778E+001;
1.662368073249158E+008;-2.932206683868932E-001;-1.057210899949804E+002;
1.725852007058845E+008;-3.006488450924438E-001;-1.234978367959842E+002;
1.791760319630858E+008;-3.060511411202627E-001;-1.418499243889279E+002;
1.860185595214950E+008;-3.090379538346604E-001;-1.610222296586220E+002;
1.931223953747393E+008;-3.233837780021779E-001;1.790910624073866E+002;
2.004975185874796E+008;-3.284407060299504E-001;1.585152921645532E+002;
2.081542893134333E+008;-3.294460792918066E-001;1.370927120796219E+002;
2.161034633487289E+008;-3.467989150514334E-001;1.149226481877486E+002;
2.243562072410370E+008;-3.347929886631432E-001;9.182533060229453E+001;
2.329241139757013E+008;-3.522000438992740E-001;6.785271849373024E+001;
2.418192192609057E+008;-3.600155818021552E-001;4.295769631265502E+001;
2.510540184347519E+008;-3.622652693762215E-001;1.716378383439272E+001;
2.606414840180006E+008;-3.732984838693862E-001;-9.593606346854916E+000;
2.705950839371309E+008;-3.784739583744591E-001;-3.745441397120727E+001;
2.809288004433170E+008;-3.826696517929408E-001;-6.632848440751039E+001;
2.916571497539004E+008;-3.945022188057785E-001;-9.628475278153356E+001;
3.027952024439460E+008;-3.960440352380525E-001;-1.274246044678113E+002;
3.143586046165293E+008;-4.132846320109911E-001;-1.597182759517688E+002;
3.263635998814921E+008;-4.187791493935755E-001;1.667159870569170E+002;
3.388270521735421E+008;-4.257774044421359E-001;1.319087758259648E+002;
3.517664694417494E+008;-4.322662029965869E-001;9.576175318615732E+001;
3.652000282437178E+008;-4.377753777992654E-001;5.821951221337668E+001;
3.791465992789793E+008;-4.491577809385223E-001;1.926773429694629E+001;
3.936257738974798E+008;-4.569158092881767E-001;-2.121344841699495E+001;
4.086578916203936E+008;-4.690241645090534E-001;-6.320708478216633E+001;
4.242640687119258E+008;-4.809215276154490E-001;-1.068162564715516E+002;
4.404662278422399E+008;-4.847327720945740E-001;-1.520362680871399E+002;
4.572871288831783E+008;-4.915208149402611E-001;1.609694333544889E+002;
4.747504008800356E+008;-5.033052019387651E-001;1.121531402058379E+002;
4.928805752442984E+008;-5.157048995505178E-001;6.152132692259401E+001;
5.117031202139767E+008;-5.235165205739547E-001;8.954496044646911E+000;
5.312444766299368E+008;-5.310072847126954E-001;-4.564485046616823E+001;
5.515320950784909E+008;-5.479103289699099E-001;-1.023009328465778E+002;
5.725944744524199E+008;-5.546135609553869E-001;-1.611049449777898E+002;
5.944612019845973E+008;-5.669100354269107E-001;1.378000058762190E+002;
6.171629948104519E+008;-5.761859511854144E-001;7.436125862302153E+001;
6.407317431176524E+008;-5.934174788936644E-001;8.561196717211224E+000;
6.652005549436301E+008;-6.040962035021491E-001;-5.977793144095509E+001;
6.906038026838671E+008;-6.131690104764596E-001;-1.307411360257709E+002;
7.169771713762831E+008;-6.238540791839936E-001;1.556266956529693E+002;
7.443577088295471E+008;-6.340318852770029E-001;7.913401462250789E+001;
7.727838776657330E+008;-6.537253627005930E-001;-2.319469619249071E-001;
8.022956093504235E+008;-6.633583477028036E-001;-8.259439466076871E+001;
8.329343602861624E+008;-6.702633790682019E-001;-1.681489243664787E+002;
8.647431700480518E+008;-6.861408056025906E-001;1.029682840108134E+002;
8.977667218432996E+008;-7.097189918579228E-001;1.074543203930109E+001;
9.320514052796482E+008;-7.198531647861711E-001;-8.494487089525948E+001;
9.676453815308577E+008;-7.295410564930187E-001;1.756054494601637E+002;
1.004598650990784E+009;-7.517349503396358E-001;7.242337587845326E+001;
1.042963123511089E+009;-7.676327338189646E-001;-3.462176400801417E+001;
1.082792691321250E+009;-7.744042793031647E-001;-1.458635061842416E+002;
1.124143304733295E+009;-7.915322741308448E-001;9.864193077656074E+001;
1.167073050737623E+009;-8.109675795487932E-001;-2.117780861006323E+001;
1.211642234600307E+009;-8.214424308029849E-001;-1.456651754161965E+002;
1.257913464576497E+009;-8.412998043312170E-001;8.514405786741793E+001;
1.305951739858941E+009;-8.621751231464735E-001;-4.895936888602117E+001;
1.355824541885154E+009;-8.789833924916560E-001;1.717660805099714E+002;
1.407601929131501E+009;-8.920744575806958E-001;2.723961678090244E+001;
1.461356635527369E+009;-9.162831500750301E-001;-1.228412973251856E+002;
1.517164172627645E+009;-9.286036782884998E-001;8.131984475937378E+001;
1.575102935687062E+009;-9.554819049597431E-001;-8.045935591314269E+001;
1.635254313785392E+009;-9.676422976534956E-001;1.116291255470423E+002;
1.697702804158197E+009;-9.926726989543518E-001;-6.275545313148789E+001;
1.762536130893741E+009;-1.015723886523926E+000;1.163956307542486E+002;
1.829845368162803E+009;-1.044868365331108E+000;-7.161270226341010E+001;
1.899725068154491E+009;-1.058682396138618E+000;9.352591685438844E+001;
1.972273393897780E+009;-1.087634483064840E+000;-1.092950519684637E+002;
2.047592257155356E+009;-1.097753969045628E+000;4.061244662664034E+001;
2.125787461583465E+009;-1.153756212021157E+000;-1.777847682853466E+002;
2.206968851358869E+009;-1.153570085380338E+000;-4.445666588546638E+001;
2.291250465481706E+009;-1.194057467206187E+000;8.053117991112322E+001;
2.378750697970985E+009;-1.221104389788600E+000;-1.639302430127874E+002;
2.469592464177779E+009;-1.224095001780132E+000;-5.731524723563125E+001;
2.563903373449715E+009;-1.270989867518973E+000;3.947686956602612E+001;
2.661815908389335E+009;-1.317254705638106E+000;1.259438732433659E+002;
2.763467610958116E+009;-1.317078647724735E+000;-1.576907842835885E+002;
2.869001275687604E+009;-1.352720927791424E+000;-9.226770158681718E+001;
2.978565150269043E+009;-1.412405760858315E+000;-3.797550955064366E+001;
3.092313143803313E+009;-1.444402090310379E+000;4.304962376379412E+000;
3.210405043003673E+009;-1.468356078378354E+000;3.471434197226861E+001;
3.333006736655056E+009;-1.493238406213587E+000;5.243587943670128E+001;
3.460290448645197E+009;-1.510811977540400E+000;5.730079610433201E+001;
3.592434979894962E+009;-1.540758389414693E+000;4.868280367841482E+001;
3.729625959527711E+009;-1.565952871340194E+000;2.583168814453392E+001;
3.872056105630537E+009;-1.596903984889641E+000;-1.184509201201803E+001;
4.019925495973672E+009;-1.638966886432165E+000;-6.472840087099499E+001;
4.173441849068368E+009;-1.695074602991581E+000;-1.332757265619752E+002;
4.332820815958047E+009;-1.750690691668678E+000;1.417291302516553E+002;
4.498286283152621E+009;-1.876108641288945E+000;4.009884714087081E+001;
4.670070687131537E+009;-1.849012475695193E+000;-7.902942226100859E+001;
4.848415340857322E+009;-1.879820074345472E+000;1.425768739731342E+002;
5.033570772758309E+009;-2.052367984393237E+000;-1.418694488684333E+001;
5.225797078656734E+009;-2.183215564232241E+000;1.694455871177271E+002;
5.425364287136548E+009;-2.211292328092045E+000;-2.773684711609704E+001;
5.632552738864227E+009;-2.479314762675715E+000;1.152091426506450E+002;
5.847653480395394E+009;-2.648823021409744E+000;-1.247688093698134E+002;
6.070968673020469E+009;-2.670882856757646E+000;-2.691268069124301E+001;
6.302812017223670E+009;-2.501840240771123E+000;4.684969021369352E+001;
6.543509193351618E+009;-2.413251213043220E+000;9.544045514233449E+001;
6.793398319110564E+009;-2.549356517047042E+000;1.184985975370165E+002;
7.052830424534919E+009;-2.594357741919261E+000;1.139019682563734E+002;
7.322169945094285E+009;-2.681462629300792E+000;8.206724646472181E+001;
7.601795233631680E+009;-2.764560181327450E+000;2.257686312214310E+001;
7.892099091852097E+009;-2.791132330003840E+000;-6.725814744366159E+001;
8.193489322108005E+009;-2.759133052481384E+000;1.714711619954671E+002;
8.506389300256902E+009;-2.671050897309867E+000;1.762801951762864E+001;
8.831238570395649E+009;-2.851421321725460E+000;-1.689044121915351E+002;
9.168493462307018E+009;-2.913312523276520E+000;-2.948831544661812E+001;
9.518627732485830E+009;-2.909869891175515E+000;7.264167204637782E+001;
9.882133229645132E+009;-2.991560637531405E+000;1.378141798726959E+002;
1.025952058563731E+010;-3.067420086804444E+000;1.649184692043284E+002;
1.065131993276066E+010;-3.276454477051737E+000;1.513444819835019E+002;
1.105808164845913E+010;-3.331305598385534E+000;9.582730873146356E+001;
1.148037712846121E+010;-3.649265178747702E+000;-1.960308295162065E+000;
1.191879958944423E+010;-3.990885589880446E+000;-1.445614714910257E+002;
1.237396490235132E+010;-3.877269914066329E+000;2.976959983487787E+001;
1.284651245753197E+010;-4.044351251572301E+000;1.489232818909792E+002;
1.333710606292122E+010;-4.052195145923952E+000;-1.373297413141836E+002;
1.384643487651927E+010;-3.895697149860597E+000;-1.190619697424130E+002;
1.437521437448148E+010;-3.721493459096442E+000;-1.570622362538256E+002;
1.492418735617858E+010;-3.796570766269993E+000;1.106094923161359E+002;
1.549412498763898E+010;-3.998954125227586E+000;-4.219433015722062E+001;
1.608582788483898E+010;-4.490468969137124E+000;1.073592097809857E+002;
1.670012723836252E+010;-4.156386338414493E+000;-1.668383378534456E+002;
1.733788598101053E+010;-4.946876869675437E+000;-1.459449429785315E+002;
1.800000000000000E+010;-4.340328422331197E+000;1.641069990303348E+002;
