# Version 1.00
#
freq[Hz];db:Trc1_S21;ang:Trc1_S21;
1.000000000000000E+007;-1.689177529764105E-001;-6.422936618021841E+001;
1.038188855303029E+007;-1.598424873778437E-001;-6.628725308933262E+001;
1.077836099275414E+007;-1.261898882758556E-001;-6.766423006223624E+001;
1.118997426111024E+007;-4.092839440587023E-001;-7.182247106301843E+001;
1.161730656901240E+007;-2.673630454975524E-001;-7.323710735745073E+001;
1.206095820858735E+007;-1.395285304385642E-001;-7.652658160462183E+001;
1.252155239643097E+007;-1.330038322752568E-001;-7.989790739129695E+001;
1.299973614906757E+007;-2.039437069364362E-001;-8.219217988398727E+001;
1.349618119184187E+007;-1.448156003999405E-001;-8.549751881102375E+001;
1.401158490252058E+007;-8.695796594721665E-002;-8.905392490602593E+001;
1.454667129092905E+007;-2.306036510425892E-001;-9.242992761106606E+001;
1.510219201599907E+007;-3.176628935724872E-001;-9.494322948499961E+001;
1.567892744165662E+007;-1.852853751388626E-001;-9.957820869441261E+001;
1.627768773303274E+007;-2.082996034892527E-001;-1.028149236041780E+002;
1.689931399453742E+007;-1.034964012032243E-001;-1.069084608145483E+002;
1.754467945139527E+007;-1.616203040512965E-001;-1.111208710556483E+002;
1.821469067630263E+007;-2.429836208059847E-001;-1.151545784143717E+002;
1.891028886292939E+007;-2.304165813924487E-001;-1.195375520527621E+002;
1.963245114805428E+007;-2.570518179264857E-001;-1.246772978268462E+002;
2.038219198419111E+007;-2.315137687715699E-001;-1.288989199556377E+002;
2.116056456463395E+007;-2.159934862741513E-001;-1.335650651233428E+002;
2.196866230292316E+007;-2.585178648379322E-001;-1.391722884577795E+002;
2.280762036881060E+007;-2.096979955246587E-001;-1.440704761394588E+002;
2.367861728288153E+007;-2.142814418874034E-001;-1.500336651686936E+002;
2.458287657207330E+007;-2.074480330674334E-001;-1.555220653151341E+002;
2.552166848841643E+007;-2.173821208885411E-001;-1.612798140194639E+002;
2.649631179341245E+007;-2.266232369942327E-001;-1.676899453079468E+002;
2.750817561055502E+007;-2.203405329380638E-001;-1.737355900607732E+002;
2.855868134859682E+007;-2.165769751023718E-001;1.794537619135916E+002;
2.964930469826371E+007;-2.030780318625154E-001;1.723325242890057E+002;
3.078157770522112E+007;-2.641563096891733E-001;1.656781776211449E+002;
3.195709092220476E+007;-2.378247582189733E-001;1.579868377518877E+002;
3.317749564333858E+007;-2.582506639915375E-001;1.502328522503572E+002;
3.444450622377892E+007;-2.719725236110539E-001;1.422227160152763E+002;
3.575990248794310E+007;-2.679218787135314E-001;1.342438137412780E+002;
3.712553222970559E+007;-2.767164079448188E-001;1.253711476059884E+002;
3.854331380807376E+007;-3.057020547995942E-001;1.166842551916331E+002;
4.001523884198953E+007;-3.162530582423381E-001;1.071919057951354E+002;
4.154337500804243E+007;-2.990545390379330E-001;9.792456611899853E+001;
4.312986894502404E+007;-2.907940071656792E-001;8.769797248202910E+001;
4.477694926940417E+007;-2.821963398826301E-001;7.749731291734921E+001;
4.648692970596453E+007;-2.936284968868955E-001;6.642877818392471E+001;
4.826221233798770E+007;-2.862513934350047E-001;5.525765796715507E+001;
5.010529098156718E+007;-3.086935483353467E-001;4.367704794282302E+001;
5.201875468877842E+007;-3.448648689362531E-001;3.155081221360940E+001;
5.400529138463195E+007;-3.243050900903434E-001;1.926993568700754E+001;
5.606769164291760E+007;-3.317036783027543E-001;6.270342896004030E+000;
5.820885260624383E+007;-3.528436139527107E-001;-7.226830450915937E+000;
6.043178205577903E+007;-2.945980045719034E-001;-2.140226733944797E+001;
6.273960263641138E+007;-3.621864998796299E-001;-3.594015670709408E+001;
6.513555624326284E+007;-3.822470771612009E-001;-5.094591441566654E+001;
6.762300857571912E+007;-3.820305686149458E-001;-6.654464653218392E+001;
7.020545386537276E+007;-3.932245208681855E-001;-8.261393791906814E+001;
7.288651978452097E+007;-3.810488412389687E-001;-9.969504639396561E+001;
7.566997254211341E+007;-3.743786829199375E-001;-1.170750277868202E+002;
7.855972217430838E+007;-4.306784680366294E-001;-1.353031811220611E+002;
8.155982803706922E+007;-4.017332302742098E-001;-1.542196323727561E+002;
8.467450450851679E+007;-4.252441049042027E-001;-1.738802802761182E+002;
8.790812690904823E+007;-4.102709549661832E-001;1.658715246797125E+002;
9.126523764753820E+007;-4.287109432895567E-001;1.447848358796349E+002;
9.475055260225661E+007;-4.247758998603727E-001;1.228669153554145E+002;
9.836896774546625E+007;-4.382007530669528E-001;1.001071728581208E+002;
1.021255660210062E+008;-4.513901786549700E-001;7.664285888262803E+001;
1.060256244845224E+008;-4.494350533809078E-001;5.192623381362405E+001;
1.100746217163751E+008;-4.625449389341342E-001;2.643020834979293E+001;
1.142782455176374E+008;-4.745201064665535E-001;1.250540533024172E-002;
1.186424008999945E+008;-4.857783754652738E-001;-2.727679308926971E+001;
1.231732183807684E+008;-5.072956080982426E-001;-5.578495258348610E+001;
1.278770625947199E+008;-4.975479074241242E-001;-8.541704266911700E+001;
1.327605412347261E+008;-5.079015091591327E-001;-1.161351600931898E+002;
1.378305143338909E+008;-5.247077501559394E-001;-1.479679944277010E+002;
1.430941039021300E+008;-5.232231063385124E-001;1.789132332167783E+002;
1.485587039307650E+008;-5.403870167603929E-001;1.446355128695939E+002;
1.542319907791826E+008;-5.497191223917440E-001;1.089537326678828E+002;
1.601219339581469E+008;-5.639471398266865E-001;7.188087719640538E+001;
1.662368073249158E+008;-5.738826596738423E-001;3.348167967895737E+001;
1.725852007058845E+008;-5.849611748416164E-001;-6.430320620901951E+000;
1.791760319630858E+008;-5.930637717831047E-001;-4.775546290258487E+001;
1.860185595214950E+008;-6.032348772035623E-001;-9.081410125022615E+001;
1.931223953747393E+008;-6.218349431815489E-001;-1.354989694198870E+002;
2.004975185874796E+008;-6.357167758104048E-001;1.782200968853499E+002;
2.081542893134333E+008;-6.450147401747260E-001;1.300683822698085E+002;
2.161034633487289E+008;-6.637643280549452E-001;8.021318122977256E+001;
2.243562072410370E+008;-6.584129018489250E-001;2.828983848835494E+001;
2.329241139757013E+008;-6.861276427639795E-001;-2.554817987268058E+001;
2.418192192609057E+008;-6.978726855170190E-001;-8.147542839357767E+001;
2.510540184347519E+008;-7.108083736368365E-001;-1.394602707923019E+002;
2.606414840180006E+008;-7.301758140223722E-001;1.603528196900616E+002;
2.705950839371309E+008;-7.427004440642883E-001;9.779278475805113E+001;
2.809288004433170E+008;-7.557082698132247E-001;3.289700077431110E+001;
2.916571497539004E+008;-7.751014384705098E-001;-3.444356512412504E+001;
3.027952024439460E+008;-7.812844085865284E-001;-1.044120827851569E+002;
3.143586046165293E+008;-8.024610347929031E-001;-1.770331765958682E+002;
3.263635998814921E+008;-8.185119500942606E-001;1.075172428345983E+002;
3.388270521735421E+008;-8.386921717741595E-001;2.929726601960489E+001;
3.517664694417494E+008;-8.467546569153621E-001;-5.199811678568396E+001;
3.652000282437178E+008;-8.671884283766418E-001;-1.363882058152099E+002;
3.791465992789793E+008;-8.884591738360206E-001;1.361203431369402E+002;
3.936257738974798E+008;-9.017775938150707E-001;4.511423630090376E+001;
4.086578916203936E+008;-9.233492037716670E-001;-4.926985590715103E+001;
4.242640687119258E+008;-9.448779339134364E-001;-1.472902481899538E+002;
4.404662278422399E+008;-9.662516973916200E-001;1.109662567448973E+002;
4.572871288831783E+008;-9.934150052329500E-001;5.468780744506564E+000;
4.747504008800356E+008;-9.936648383945338E-001;-1.041621639494568E+002;
4.928805752442984E+008;-1.015115270014899E+000;1.419679538844231E+002;
5.117031202139767E+008;-1.025665568182213E+000;2.375062575019696E+001;
5.312444766299368E+008;-1.054378454811081E+000;-9.901371551724510E+001;
5.515320950784909E+008;-1.081930799588409E+000;1.337194655513571E+002;
5.725944744524199E+008;-1.099159256263526E+000;1.498046195938541E+000;
5.944612019845973E+008;-1.112638383163945E+000;-1.357811507113676E+002;
6.171629948104519E+008;-1.133905726227745E+000;8.164452613735814E+001;
6.407317431176524E+008;-1.155423274674490E+000;-6.631567487893331E+001;
6.652005549436301E+008;-1.182989921774279E+000;1.400509293922405E+002;
6.906038026838671E+008;-1.200522994894731E+000;-1.947630159411865E+001;
7.169771713762831E+008;-1.227281427960706E+000;1.749672908501159E+002;
7.443577088295471E+008;-1.267855498324605E+000;3.074383685632967E+000;
7.727838776657330E+008;-1.279832690179635E+000;-1.752934009472670E+002;
8.022956093504235E+008;-1.297774501878233E+000;-5.246061960133234E-001;
8.329343602861624E+008;-1.330804932526331E+000;1.671213593986613E+002;
8.647431700480518E+008;-1.368065363128687E+000;-3.260359135444695E+001;
8.977667218432996E+008;-1.385709822180311E+000;1.200986963087349E+002;
9.320514052796482E+008;-1.417790437016270E+000;-9.498481914748372E+001;
9.676453815308577E+008;-1.427015028231886E+000;4.153358556083155E+001;
1.004598650990784E+009;-1.463616377980712E+000;1.694974177846253E+002;
1.042963123511089E+009;-1.519578388143186E+000;-7.128638070264181E+001;
1.082792691321250E+009;-1.539864817354842E+000;3.878336791332956E+001;
1.124143304733295E+009;-1.566138745280063E+000;1.391920490165936E+002;
1.167073050737623E+009;-1.603124863937016E+000;-1.303259670286062E+002;
1.211642234600307E+009;-1.677023232791599E+000;-5.005286362522254E+001;
1.257913464576497E+009;-1.680367565681012E+000;1.985429222744125E+001;
1.305951739858941E+009;-1.690952907970416E+000;7.804888476143866E+001;
1.355824541885154E+009;-1.762326020228578E+000;1.250953526544776E+002;
1.407601929131501E+009;-1.776105161078480E+000;1.603720663544579E+002;
1.461356635527369E+009;-1.787551629093404E+000;-1.771934541324683E+002;
1.517164172627645E+009;-1.859010666941567E+000;-1.676163269268702E+002;
1.575102935687062E+009;-1.882995334529316E+000;-1.711173137526057E+002;
1.635254313785392E+009;-1.919388066917565E+000;1.712063077181296E+002;
1.697702804158197E+009;-2.023114042735091E+000;1.395062605478826E+002;
1.762536130893741E+009;-1.981041482130580E+000;9.271091458616755E+001;
1.829845368162803E+009;-2.112571697472100E+000;3.023851522138170E+001;
1.899725068154491E+009;-2.086076509024748E+000;-4.800436372277633E+001;
1.972273393897780E+009;-2.149431185129366E+000;-1.439853894529065E+002;
2.047592257155356E+009;-2.229648458059241E+000;1.038883282480997E+002;
2.125787461583465E+009;-2.291855839148623E+000;-2.734618157872271E+001;
2.206968851358869E+009;-2.341113583614171E+000;-1.759818967044417E+002;
2.291250465481706E+009;-2.411479540376940E+000;1.429777747933466E+001;
2.378750697970985E+009;-2.438679933837662E+000;-1.739270409840184E+002;
2.469592464177779E+009;-2.600553693041398E+000;-2.467711467310279E+001;
2.563903373449715E+009;-2.498898060068680E+000;1.041142835426758E+002;
2.661815908389335E+009;-2.759094623484204E+000;-1.502311336155877E+002;
2.763467610958116E+009;-2.706875959450104E+000;-6.877639650226972E+001;
2.869001275687604E+009;-2.732074275025929E+000;-9.641880831947519E+000;
2.978565150269043E+009;-2.976116845069561E+000;2.279563651096053E+001;
3.092313143803313E+009;-2.948687781219920E+000;2.806552223213863E+001;
3.210405043003673E+009;-2.919621768354479E+000;8.029499936233128E+000;
3.333006736655056E+009;-3.134864214721307E+000;-4.031461709422408E+001;
3.460290448645197E+009;-3.261140602273225E+000;-1.189834664657862E+002;
3.592434979894962E+009;-3.219462435695943E+000;1.310084688017356E+002;
3.729625959527711E+009;-3.254086991639727E+000;-9.881858882087435E+000;
3.872056105630537E+009;-3.208023020975764E+000;1.772419923830349E+002;
4.019925495973672E+009;-3.222189454198720E+000;-3.077030401780850E+001;
4.173441849068368E+009;-3.485321037050515E+000;8.593012325635968E+001;
4.332820815958047E+009;-3.365966471549014E+000;1.670393381395460E+002;
4.498286283152621E+009;-3.514303021718702E+000;-1.526705884741443E+002;
4.670070687131537E+009;-3.865299052715589E+000;-1.495707408335791E+002;
4.848415340857322E+009;-3.615062507354518E+000;1.703572393861536E+002;
5.033570772758309E+009;-4.367073701374655E+000;8.758789602815477E+001;
5.225797078656734E+009;-4.027588587888286E+000;-3.521162195782172E+001;
5.425364287136548E+009;-4.314782720754166E+000;1.512425592955057E+002;
5.632552738864227E+009;-4.294276239335245E+000;-6.720707285193703E+001;
5.847653480395394E+009;-4.541778398307129E+000;2.155764314572302E+001;
6.070968673020469E+009;-4.313913258547999E+000;6.399859044906982E+001;
6.302812017223670E+009;-4.824392415921871E+000;4.514041445417185E+001;
6.543509193351618E+009;-4.490978713304911E+000;-1.994150585152260E+001;
6.793398319110564E+009;-5.094899523767822E+000;-1.510122445662078E+002;
7.052830424534919E+009;-4.735093937510148E+000;2.263508862280951E+001;
7.322169945094285E+009;-5.451370243304795E+000;1.336248582618236E+002;
7.601795233631680E+009;-5.508725142726483E+000;1.756939849072292E+002;
7.892099091852097E+009;-5.374307657336773E+000;1.547774668998262E+002;
8.193489322108005E+009;-5.364662842738176E+000;6.459525083615996E+001;
8.506389300256902E+009;-5.518285503627867E+000;-9.634297228512040E+001;
8.831238570395649E+009;-5.894464084776829E+000;2.378352974016565E+001;
9.168493462307018E+009;-6.468725634560968E+000;6.759500975337551E+001;
9.518627732485830E+009;-7.215851172790038E+000;2.942156337667720E+001;
9.882133229645132E+009;-7.878784689665219E+000;-8.456798369793739E+001;
1.025952058563731E+010;-7.728144238966618E+000;7.373786355960777E+001;
1.065131993276066E+010;-8.058945701779487E+000;1.367851877128321E+002;
1.105808164845913E+010;-7.236618321702682E+000;1.068601080312778E+002;
1.148037712846121E+010;-7.648308710166065E+000;-2.036197348419655E+001;
1.191879958944423E+010;-6.911603874009355E+000;1.030731096665817E+002;
1.237396490235132E+010;-6.454050302106948E+000;1.272356335993433E+002;
1.284651245753197E+010;-6.775455700555055E+000;4.211900426520997E+001;
1.333710606292122E+010;-7.402486681175048E+000;-1.576593404023533E+002;
1.384643487651927E+010;-8.017337737427582E+000;-1.145432832493814E+002;
1.437521437448148E+010;-8.985472821889916E+000;1.643549979250379E+002;
1.492418735617858E+010;-8.059809007016387E+000;-3.103573197550818E+001;
1.549412498763898E+010;-9.929913703501201E+000;-1.675331983381500E+001;
1.608582788483898E+010;-1.029137103062684E+001;-1.381367299838173E+002;
1.670012723836252E+010;-1.198728287533201E+001;-9.942295089525635E+000;
1.733788598101053E+010;-9.970561506025380E+000;-3.903125513017783E+001;
1.800000000000000E+010;-1.055300582768212E+001;1.102279215692786E+002;
