# Version 1.00
#
freq[Hz];db:Trc1_S21;ang:Trc1_S21;
1.000000000000000E+007;-2.033341703714978E+001;-8.094124937686182E+001;
1.038188855303029E+007;-2.037645390964104E+001;-8.465376584093610E+001;
1.077836099275414E+007;-2.042343843664106E+001;-8.749143355341468E+001;
1.118997426111024E+007;-2.080553079947547E+001;-9.173145988742071E+001;
1.161730656901240E+007;-2.032834586046129E+001;-9.444275251365440E+001;
1.206095820858735E+007;-2.043659319911268E+001;-9.751541535339683E+001;
1.252155239643097E+007;-2.042440018568292E+001;-1.023832908106809E+002;
1.299973614906757E+007;-2.040416663341775E+001;-1.051436353444078E+002;
1.349618119184187E+007;-2.037979798315888E+001;-1.099557721054002E+002;
1.401158490252058E+007;-2.034396997516458E+001;-1.145574192207507E+002;
1.454667129092905E+007;-2.053541098742538E+001;-1.182482793760940E+002;
1.510219201599907E+007;-2.052799039589096E+001;-1.215457699109041E+002;
1.567892744165662E+007;-2.035725231659473E+001;-1.273882312262329E+002;
1.627768773303274E+007;-2.043806753808218E+001;-1.314948817788948E+002;
1.689931399453742E+007;-2.038579921976589E+001;-1.366798847130068E+002;
1.754467945139527E+007;-2.035908700245522E+001;-1.420701611891557E+002;
1.821469067630263E+007;-2.057920549095730E+001;-1.475461322822752E+002;
1.891028886292939E+007;-2.053069566928562E+001;-1.535972727422177E+002;
1.963245114805428E+007;-2.053650754528714E+001;-1.592849719255072E+002;
2.038219198419111E+007;-2.038983616597831E+001;-1.655553981654994E+002;
2.116056456463395E+007;-2.049863968467897E+001;-1.711989958879967E+002;
2.196866230292316E+007;-2.043169269359967E+001;-1.782956100736258E+002;
2.280762036881060E+007;-2.044930172308203E+001;1.749754900766746E+002;
2.367861728288153E+007;-2.035590956858731E+001;1.681695259372569E+002;
2.458287657207330E+007;-2.044509685685016E+001;1.606572072859324E+002;
2.552166848841643E+007;-2.047007509341210E+001;1.534150581872183E+002;
2.649631179341245E+007;-2.051517054908784E+001;1.454233241192783E+002;
2.750817561055502E+007;-2.047913645796503E+001;1.375843859974230E+002;
2.855868134859682E+007;-2.054373359983632E+001;1.289042338823231E+002;
2.964930469826371E+007;-2.047004754954132E+001;1.200541333513355E+002;
3.078157770522112E+007;-2.055263918663752E+001;1.111474635772777E+002;
3.195709092220476E+007;-2.052789105273653E+001;1.012801835897617E+002;
3.317749564333858E+007;-2.057507595991651E+001;9.127328089604511E+001;
3.444450622377892E+007;-2.056204867001769E+001;8.104262413587567E+001;
3.575990248794310E+007;-2.054429988502237E+001;7.061423104134501E+001;
3.712553222970559E+007;-2.055235881002313E+001;5.955172475021995E+001;
3.854331380807376E+007;-2.059745715454874E+001;4.854632315510121E+001;
4.001523884198953E+007;-2.058446575211204E+001;3.654926496401529E+001;
4.154337500804243E+007;-2.059438384198375E+001;2.426159220331566E+001;
4.312986894502404E+007;-2.059228810350399E+001;1.114256708110705E+001;
4.477694926940417E+007;-2.056575811085162E+001;-1.769970548200191E+000;
4.648692970596453E+007;-2.059566251845301E+001;-1.613384448566857E+001;
4.826221233798770E+007;-2.056032865302568E+001;-3.032816131843068E+001;
5.010529098156718E+007;-2.061640941737366E+001;-4.496827181016811E+001;
5.201875468877842E+007;-2.064793103432984E+001;-6.034622210744644E+001;
5.400529138463195E+007;-2.062184286386475E+001;-7.647556485160358E+001;
5.606769164291760E+007;-2.066682933189292E+001;-9.293739468857062E+001;
5.820885260624383E+007;-2.070946421130289E+001;-1.100027731380171E+002;
6.043178205577903E+007;-2.061382140794190E+001;-1.282884155807903E+002;
6.273960263641138E+007;-2.067010765551560E+001;-1.469002089638058E+002;
6.513555624326284E+007;-2.070320057127124E+001;-1.661604907652919E+002;
6.762300857571912E+007;-2.072955150836977E+001;1.740107691213883E+002;
7.020545386537276E+007;-2.072559246177126E+001;1.533113799051334E+002;
7.288651978452097E+007;-2.069377344208742E+001;1.315840146965516E+002;
7.566997254211341E+007;-2.070999105615195E+001;1.091899096382265E+002;
7.855972217430838E+007;-2.076279198484953E+001;8.618576949390004E+001;
8.155982803706922E+007;-2.071550289131781E+001;6.171556253877121E+001;
8.467450450851679E+007;-2.075956030658130E+001;3.679691192268177E+001;
8.790812690904823E+007;-2.075146981368234E+001;1.075731468221261E+001;
9.126523764753820E+007;-2.076163603419441E+001;-1.631076877056345E+001;
9.475055260225661E+007;-2.077471378324725E+001;-4.439283067368361E+001;
9.836896774546625E+007;-2.078412906759838E+001;-7.353901857885347E+001;
1.021255660210062E+008;-2.081566782070630E+001;-1.036413102839409E+002;
1.060256244845224E+008;-2.081229886196837E+001;-1.351264864997962E+002;
1.100746217163751E+008;-2.081873936537677E+001;-1.676127374725922E+002;
1.142782455176374E+008;-2.083087688646327E+001;1.585089330100086E+002;
1.186424008999945E+008;-2.085027977280299E+001;1.234372600783810E+002;
1.231732183807684E+008;-2.088737956013413E+001;8.697067908280270E+001;
1.278770625947199E+008;-2.088185660474642E+001;4.915150764655225E+001;
1.327605412347261E+008;-2.088651652794439E+001;9.725847441680385E+000;
1.378305143338909E+008;-2.092623348112820E+001;-3.093892155472580E+001;
1.430941039021300E+008;-2.091493671570080E+001;-7.328158664542359E+001;
1.485587039307650E+008;-2.092165945909577E+001;-1.172391559253012E+002;
1.542319907791826E+008;-2.094201354987776E+001;-1.628971855907714E+002;
1.601219339581469E+008;-2.097556566511352E+001;1.497060860095867E+002;
1.662368073249158E+008;-2.097699804079339E+001;1.005208461099842E+002;
1.725852007058845E+008;-2.100295818720184E+001;4.943402040766303E+001;
1.791760319630858E+008;-2.101655300513423E+001;-3.486627747554052E+000;
1.860185595214950E+008;-2.102315088239586E+001;-5.849897267337006E+001;
1.931223953747393E+008;-2.104759030013427E+001;-1.156263402897882E+002;
2.004975185874796E+008;-2.106123766096550E+001;-1.749905942411138E+002;
2.081542893134333E+008;-2.109112864001784E+001;1.235105899758641E+002;
2.161034633487289E+008;-2.110367606460640E+001;5.965327686913693E+001;
2.243562072410370E+008;-2.111633125657200E+001;-6.779039577633141E+000;
2.329241139757013E+008;-2.114100993537029E+001;-7.562487064901197E+001;
2.418192192609057E+008;-2.115975150538154E+001;-1.471248614118418E+002;
2.510540184347519E+008;-2.116584571628149E+001;1.385940887848684E+002;
2.606414840180006E+008;-2.119258232191146E+001;6.156379323570172E+001;
2.705950839371309E+008;-2.121668967590874E+001;-1.848716321334971E+001;
2.809288004433170E+008;-2.123006170886239E+001;-1.015424286787888E+002;
2.916571497539004E+008;-2.125929824909162E+001;1.722524952503156E+002;
3.027952024439460E+008;-2.128321276381914E+001;8.273231701553374E+001;
3.143586046165293E+008;-2.130847820720168E+001;-1.015646593067822E+001;
3.263635998814921E+008;-2.132810388284184E+001;-1.066439287988075E+002;
3.388270521735421E+008;-2.135243177751224E+001;1.531994509619756E+002;
3.517664694417494E+008;-2.136298498904427E+001;4.923936911433206E+001;
3.652000282437178E+008;-2.139338783892111E+001;-5.872928629771434E+001;
3.791465992789793E+008;-2.141559012350192E+001;-1.707691753063004E+002;
3.936257738974798E+008;-2.143740794146350E+001;7.285775216515960E+001;
4.086578916203936E+008;-2.146627967592705E+001;-4.794335169324219E+001;
4.242640687119258E+008;-2.149414528256393E+001;-1.733202777792199E+002;
4.404662278422399E+008;-2.151143009519069E+001;5.652966384205302E+001;
4.572871288831783E+008;-2.153560289774035E+001;-7.871286659503890E+001;
4.747504008800356E+008;-2.157694122695814E+001;1.409831615315513E+002;
4.928805752442984E+008;-2.160192506799956E+001;-4.597284302884455E+000;
5.117031202139767E+008;-2.161843250496006E+001;-1.557903677853242E+002;
5.312444766299368E+008;-2.165352404738855E+001;4.710449308343342E+001;
5.515320950784909E+008;-2.168705369920801E+001;-1.157248714429295E+002;
5.725944744524199E+008;-2.171641027463601E+001;7.504548258111966E+001;
5.944612019845973E+008;-2.173615794263488E+001;-1.006022749653745E+002;
6.171629948104519E+008;-2.175938105302767E+001;7.699274225213488E+001;
6.407317431176524E+008;-2.181038609939234E+001;-1.124087922588380E+002;
6.652005549436301E+008;-2.184040224066803E+001;5.108307127538487E+001;
6.906038026838671E+008;-2.186571013258446E+001;-1.529419363361628E+002;
7.169771713762831E+008;-2.188796172972060E+001;-4.760115491998461E+000;
7.443577088295471E+008;-2.193503631206377E+001;1.353804273412971E+002;
7.727838776657330E+008;-2.195070940420717E+001;-9.309781626951830E+001;
8.022956093504235E+008;-2.199444345662800E+001;2.985437967062653E+001;
8.329343602861624E+008;-2.205159939893011E+001;1.438665129799263E+002;
8.647431700480518E+008;-2.206310927334170E+001;-1.116938358105938E+002;
8.977667218432996E+008;-2.212465927478088E+001;-1.691223201797332E+001;
9.320514052796482E+008;-2.213855266254461E+001;6.784541942902237E+001;
9.676453815308577E+008;-2.218012417551042E+001;1.417121745535140E+002;
1.004598650990784E+009;-2.225172060450277E+001;-1.547951626050231E+002;
1.042963123511089E+009;-2.226509259394489E+001;-1.030288316525191E+002;
1.082792691321250E+009;-2.233749087577844E+001;-6.270157282080084E+001;
1.124143304733295E+009;-2.233157337174589E+001;-3.488959726298741E+001;
1.167073050737623E+009;-2.239780622853282E+001;-1.958829320557950E+001;
1.211642234600307E+009;-2.243680400056025E+001;-1.782854820315919E+001;
1.257913464576497E+009;-2.251203870922886E+001;-2.893414236597161E+001;
1.305951739858941E+009;-2.252510881954132E+001;-5.503086430036662E+001;
1.355824541885154E+009;-2.257044213995044E+001;-9.529732227868891E+001;
1.407601929131501E+009;-2.264458083545546E+001;-1.512766945104043E+002;
1.461356635527369E+009;-2.264484582403568E+001;1.372444890298283E+002;
1.517164172627645E+009;-2.270025491879133E+001;4.921820582942053E+001;
1.575102935687062E+009;-2.278991258481375E+001;-5.644821561719995E+001;
1.635254313785392E+009;-2.278318664941482E+001;-1.792171226466138E+002;
1.697702804158197E+009;-2.282761355774284E+001;3.950469336778030E+001;
1.762536130893741E+009;-2.295642010691621E+001;-1.210387469482412E+002;
1.829845368162803E+009;-2.299624693844384E+001;5.821799836057414E+001;
1.899725068154491E+009;-2.300634411836974E+001;-1.430134216237679E+002;
1.972273393897780E+009;-2.304138438921893E+001;-5.452258312919967E+000;
2.047592257155356E+009;-2.307681689740825E+001;1.099352983528580E+002;
2.125787461583465E+009;-2.316027697038819E+001;-1.578346365647905E+002;
2.206968851358869E+009;-2.325681233608071E+001;-8.957114251269917E+001;
2.291250465481706E+009;-2.330365134470626E+001;-4.629311295790922E+001;
2.378750697970985E+009;-2.341639708309037E+001;-2.861025948352956E+001;
2.469592464177779E+009;-2.339731281888555E+001;-3.825108150539516E+001;
2.563903373449715E+009;-2.347288431250758E+001;-7.520932420331789E+001;
2.661815908389335E+009;-2.352463823076796E+001;-1.424848578477008E+002;
2.763467610958116E+009;-2.373848723583804E+001;1.215895191158681E+002;
2.869001275687604E+009;-2.388141766044698E+001;-5.422426746804328E+000;
2.978565150269043E+009;-2.383913583586326E+001;-1.638011263117637E+002;
3.092313143803313E+009;-2.392080269281046E+001;7.033868272799974E-001;
3.210405043003673E+009;-2.415831374640417E+001;1.339600216711581E+002;
3.333006736655056E+009;-2.407465906504420E+001;-1.296047714750810E+002;
3.460290448645197E+009;-2.445307441905701E+001;-7.270081488540455E+001;
3.592434979894962E+009;-2.421533783084825E+001;-5.204395275708443E+001;
3.729625959527711E+009;-2.469745587534941E+001;-7.297476274117135E+001;
3.872056105630537E+009;-2.460234187867167E+001;-1.383775963753402E+002;
4.019925495973672E+009;-2.436712664334788E+001;1.159131135696966E+002;
4.173441849068368E+009;-2.456422573373996E+001;-3.462424080204792E+001;
4.332820815958047E+009;-2.483462772489914E+001;1.263954907088229E+002;
4.498286283152621E+009;-2.505512383512209E+001;-1.228508562518012E+002;
4.670070687131537E+009;-2.517050174734253E+001;-6.252148685147365E+001;
4.848415340857322E+009;-2.515201805978809E+001;-5.417453863969828E+001;
5.033570772758309E+009;-2.518801803974752E+001;-1.015861583641400E+002;
5.225797078656734E+009;-2.535127330624165E+001;1.543018350427814E+002;
5.425364287136548E+009;-2.578586420364563E+001;-5.334042157331245E+000;
5.632552738864227E+009;-2.550328739928985E+001;1.329844677515241E+002;
5.847653480395394E+009;-2.571791945922866E+001;-1.547810083597863E+002;
6.070968673020469E+009;-2.538467849508947E+001;-1.473628205684687E+002;
6.302812017223670E+009;-2.566641129897464E+001;1.519674432471462E+002;
6.543509193351618E+009;-2.609525855498140E+001;2.079647668393729E+001;
6.793398319110564E+009;-2.590340040183381E+001;1.730965831971019E+002;
7.052830424534919E+009;-2.619555256860436E+001;-1.098962335174508E+002;
7.322169945094285E+009;-2.629570464498326E+001;-1.105304303595697E+002;
7.601795233631680E+009;-2.608922720585960E+001;1.638184394140939E+002;
7.892099091852097E+009;-2.646515607041343E+001;-8.739550642663916E+000;
8.193489322108005E+009;-2.645842842916354E+001;9.383741563577381E+001;
8.506389300256902E+009;-2.677873494857226E+001;1.026657176139548E+002;
8.831238570395649E+009;-2.669251762765303E+001;1.568422077350444E+001;
9.168493462307018E+009;-2.683050688082388E+001;-1.726462724806506E+002;
9.518627732485830E+009;-2.672426483171076E+001;-1.059307984195772E+002;
9.882133229645132E+009;-2.659747195151320E+001;-1.447840091008456E+002;
1.025952058563731E+010;-2.660902659380784E+001;6.397368419595573E+001;
1.065131993276066E+010;-2.712774095583728E+001;1.613026205003733E+002;
1.105808164845913E+010;-2.722783819637110E+001;1.333999166314590E+002;
1.148037712846121E+010;-2.703757619904205E+001;-1.729301906234037E+001;
1.191879958944423E+010;-2.728427202726622E+001;6.066004973782846E+001;
1.237396490235132E+010;-2.746216415021414E+001;8.581536431653523E+000;
1.284651245753197E+010;-2.734448772485843E+001;1.704564302400183E+002;
1.333710606292122E+010;-2.720955668332392E+001;-1.676711583329077E+002;
1.384643487651927E+010;-2.740309440006931E+001;6.096749068553505E+001;
1.437521437448148E+010;-2.784533927898980E+001;1.326914888625134E+002;
1.492418735617858E+010;-2.751569481642848E+001;4.202991622708671E+001;
1.549412498763898E+010;-2.810880337882432E+001;1.421721793454793E+002;
1.608582788483898E+010;-2.874303643366043E+001;6.657428158928470E+001;
1.670012723836252E+010;-2.889382018896033E+001;1.744253186997232E+002;
1.733788598101053E+010;-2.854441358470427E+001;8.491815288343840E+001;
1.800000000000000E+010;-2.895070407116336E+001;1.616155082951554E+002;
