# Version 1.00
#
freq[Hz];db:Trc1_S21;ang:Trc1_S21;
1.000000000000000E+007;-1.922280279288935E-001;-6.741958976039597E+001;
1.038188855303029E+007;-1.769454433535964E-001;-6.977271261517670E+001;
1.077836099275414E+007;-1.565293232993633E-001;-7.130696209690208E+001;
1.118997426111024E+007;-4.182675712081393E-001;-7.573141066605652E+001;
1.161730656901240E+007;-2.298685487248086E-001;-7.692519987680294E+001;
1.206095820858735E+007;-1.318904391439157E-001;-8.065114774802031E+001;
1.252155239643097E+007;-1.415499255383244E-001;-8.401983192764305E+001;
1.299973614906757E+007;-2.005570758864331E-001;-8.662436581868597E+001;
1.349618119184187E+007;-1.232654564615064E-001;-9.023707622763723E+001;
1.401158490252058E+007;-8.463823766508867E-002;-9.377451033531989E+001;
1.454667129092905E+007;-2.699865192212251E-001;-9.747769667574239E+001;
1.510219201599907E+007;-3.264584985027743E-001;-1.001189424413950E+002;
1.567892744165662E+007;-1.871779171132123E-001;-1.049427195551266E+002;
1.627768773303274E+007;-2.262891145661738E-001;-1.083958170086133E+002;
1.689931399453742E+007;-1.323172351587099E-001;-1.127497893573135E+002;
1.754467945139527E+007;-1.741040533655405E-001;-1.170009260687010E+002;
1.821469067630263E+007;-2.361763388672303E-001;-1.210316395123777E+002;
1.891028886292939E+007;-2.096387690856664E-001;-1.260319866497404E+002;
1.963245114805428E+007;-2.446089908604457E-001;-1.314976169579417E+002;
2.038219198419111E+007;-2.274203269526022E-001;-1.360098806023010E+002;
2.116056456463395E+007;-2.235014669605584E-001;-1.406728472216083E+002;
2.196866230292316E+007;-2.587570189417625E-001;-1.466411575585288E+002;
2.280762036881060E+007;-2.323961485640402E-001;-1.517239268894561E+002;
2.367861728288153E+007;-2.327040736506246E-001;-1.580406401490781E+002;
2.458287657207330E+007;-2.076487245866280E-001;-1.638328780993214E+002;
2.552166848841643E+007;-2.267225071041938E-001;-1.699785450362968E+002;
2.649631179341245E+007;-2.373058686979676E-001;-1.766272815470245E+002;
2.750817561055502E+007;-2.295166330065800E-001;1.768856861354580E+002;
2.855868134859682E+007;-2.251321363788388E-001;1.697718816619619E+002;
2.964930469826371E+007;-2.144060350077293E-001;1.622356389715591E+002;
3.078157770522112E+007;-2.653135036479851E-001;1.551204856101593E+002;
3.195709092220476E+007;-2.459927708415043E-001;1.471791506557159E+002;
3.317749564333858E+007;-2.583873374978173E-001;1.389900332688897E+002;
3.444450622377892E+007;-2.822145448961733E-001;1.304774548715402E+002;
3.575990248794310E+007;-2.828568415690500E-001;1.220954387111105E+002;
3.712553222970559E+007;-2.869537045672096E-001;1.127969152632605E+002;
3.854331380807376E+007;-3.086353657465749E-001;1.035505944927693E+002;
4.001523884198953E+007;-3.307584546023110E-001;9.358621304482499E+001;
4.154337500804243E+007;-3.075754782598472E-001;8.374351794602114E+001;
4.312986894502404E+007;-3.010626802973885E-001;7.303617317914753E+001;
4.477694926940417E+007;-2.944695556355970E-001;6.226132692070180E+001;
4.648692970596453E+007;-3.080311652427984E-001;5.062828764204868E+001;
4.826221233798770E+007;-2.964243933216340E-001;3.880992876156909E+001;
5.010529098156718E+007;-3.279364606882029E-001;2.662989045584148E+001;
5.201875468877842E+007;-3.601519189906540E-001;1.387496170312129E+001;
5.400529138463195E+007;-3.303865984708745E-001;8.673951355142670E-001;
5.606769164291760E+007;-3.425237058259143E-001;-1.281454069238442E+001;
5.820885260624383E+007;-3.669822619089952E-001;-2.698931755238485E+001;
6.043178205577903E+007;-3.096111104959382E-001;-4.193856212421909E+001;
6.273960263641138E+007;-3.763436170922025E-001;-5.725100011797530E+001;
6.513555624326284E+007;-3.939682921628661E-001;-7.306989344457071E+001;
6.762300857571912E+007;-3.929267184512368E-001;-8.952713049381859E+001;
7.020545386537276E+007;-4.050223853869028E-001;-1.065253812673288E+002;
7.288651978452097E+007;-3.889787371345481E-001;-1.244552683001705E+002;
7.566997254211341E+007;-3.868764431218843E-001;-1.427766172078017E+002;
7.855972217430838E+007;-4.495105317722542E-001;-1.620016589604116E+002;
8.155982803706922E+007;-4.187999365535190E-001;1.780958188320494E+002;
8.467450450851679E+007;-4.379583833820200E-001;1.573660600046374E+002;
8.790812690904823E+007;-4.264786390961733E-001;1.360032724751375E+002;
9.126523764753820E+007;-4.412664811227492E-001;1.137703625991730E+002;
9.475055260225661E+007;-4.350835881351933E-001;9.066009609948634E+001;
9.836896774546625E+007;-4.496335009470487E-001;6.668889461436457E+001;
1.021255660210062E+008;-4.659334658624568E-001;4.193861441193582E+001;
1.060256244845224E+008;-4.693696254755013E-001;1.589269655248687E+001;
1.100746217163751E+008;-4.852283309032433E-001;-1.095612034946186E+001;
1.142782455176374E+008;-4.942785821333097E-001;-3.880946128800844E+001;
1.186424008999945E+008;-5.076428058832336E-001;-6.756779467293879E+001;
1.231732183807684E+008;-5.238935015299380E-001;-9.766710203500523E+001;
1.278770625947199E+008;-5.217035016944225E-001;-1.288391480878760E+002;
1.327605412347261E+008;-5.333857560056765E-001;-1.612614215851166E+002;
1.378305143338909E+008;-5.487512863751174E-001;1.652355281660084E+002;
1.430941039021300E+008;-5.480492365432360E-001;1.303444968789881E+002;
1.485587039307650E+008;-5.604982048986377E-001;9.419356090502011E+001;
1.542319907791826E+008;-5.715448884779691E-001;5.660992365859763E+001;
1.601219339581469E+008;-5.884639048744002E-001;1.755114437445778E+001;
1.662368073249158E+008;-5.921472932149433E-001;-2.293092941667678E+001;
1.725852007058845E+008;-6.068531608771731E-001;-6.500650903572122E+001;
1.791760319630858E+008;-6.190845704338114E-001;-1.085932475045875E+002;
1.860185595214950E+008;-6.310636703515772E-001;-1.539414779485473E+002;
1.931223953747393E+008;-6.468383396130357E-001;1.589760626013489E+002;
2.004975185874796E+008;-6.663079117389481E-001;1.101819439666412E+002;
2.081542893134333E+008;-6.705668692086659E-001;5.944046814668844E+001;
2.161034633487289E+008;-6.909371270959136E-001;6.870343471781779E+000;
2.243562072410370E+008;-6.908407572334788E-001;-4.781545025743588E+001;
2.329241139757013E+008;-7.125409037067529E-001;-1.045633284478730E+002;
2.418192192609057E+008;-7.283495013165319E-001;-1.634920088140629E+002;
2.510540184347519E+008;-7.374368986870215E-001;1.354035486757944E+002;
2.606414840180006E+008;-7.573805673537729E-001;7.194754412219297E+001;
2.705950839371309E+008;-7.703853763190720E-001;6.003265665177734E+000;
2.809288004433170E+008;-7.817084054503658E-001;-6.239130537692819E+001;
2.916571497539004E+008;-8.036262104015791E-001;-1.333935360373585E+002;
3.027952024439460E+008;-8.159365826962250E-001;1.528831977213760E+002;
3.143586046165293E+008;-8.350767865638147E-001;7.635680302662982E+001;
3.263635998814921E+008;-8.496853852988509E-001;-3.138428445582476E+000;
3.388270521735421E+008;-8.657056346684807E-001;-8.562022816827381E+001;
3.517664694417494E+008;-8.785114423729412E-001;-1.712714760384527E+002;
3.652000282437178E+008;-8.972502776488146E-001;9.980505566716508E+001;
3.791465992789793E+008;-9.195254664033866E-001;7.511119459499684E+000;
3.936257738974798E+008;-9.342779718823463E-001;-8.835269340579272E+001;
4.086578916203936E+008;-9.587149291612448E-001;1.721938604202297E+002;
4.242640687119258E+008;-9.755260506137297E-001;6.887497447718269E+001;
4.404662278422399E+008;-9.898305069298723E-001;-3.832411898083719E+001;
4.572871288831783E+008;-1.014438450073555E+000;-1.496156676354668E+002;
4.747504008800356E+008;-1.027183098618820E+000;9.481900533299664E+001;
4.928805752442984E+008;-1.051071354621780E+000;-2.517638403857724E+001;
5.117031202139767E+008;-1.066279714101978E+000;-1.497432098235803E+002;
5.312444766299368E+008;-1.087698302026269E+000;8.092181717476753E+001;
5.515320950784909E+008;-1.113719258568225E+000;-5.327130421214135E+001;
5.725944744524199E+008;-1.132700928595664E+000;1.673806773553426E+002;
5.944612019845973E+008;-1.148565843731292E+000;2.266711784018654E+001;
6.171629948104519E+008;-1.172173167701256E+000;-1.275904621510048E+002;
6.407317431176524E+008;-1.197316158362651E+000;7.646543901309106E+001;
6.652005549436301E+008;-1.224834296544889E+000;-8.543046464173224E+001;
6.906038026838671E+008;-1.245518710449787E+000;1.065008011739111E+002;
7.169771713762831E+008;-1.265253860230057E+000;-6.798174524544987E+001;
7.443577088295471E+008;-1.287007189457655E+000;1.108345868088993E+002;
7.727838776657330E+008;-1.316671271718257E+000;-7.724996675720790E+001;
8.022956093504235E+008;-1.341495060462204E+000;8.757261813768203E+001;
8.329343602861624E+008;-1.362427907873030E+000;-1.151254896575771E+002;
8.647431700480518E+008;-1.391430348991864E+000;3.436578045594401E+001;
8.977667218432996E+008;-1.421492548011426E+000;1.758993227017323E+002;
9.320514052796482E+008;-1.449411639560828E+000;-5.093921494813937E+001;
9.676453815308577E+008;-1.471976879391425E+000;7.357372558983798E+001;
1.004598650990784E+009;-1.507771551550756E+000;-1.708347976352324E+002;
1.042963123511089E+009;-1.536292751964687E+000;-6.463045883351354E+001;
1.082792691321250E+009;-1.562082872793321E+000;3.180284115853813E+001;
1.124143304733295E+009;-1.590846718656150E+000;1.183131607197257E+002;
1.167073050737623E+009;-1.618382754832125E+000;-1.656657549253619E+002;
1.211642234600307E+009;-1.663284980032333E+000;-1.005447217259733E+002;
1.257913464576497E+009;-1.691264192037188E+000;-4.662154029302741E+001;
1.305951739858941E+009;-1.717150392671125E+000;-4.435324467703393E+000;
1.355824541885154E+009;-1.761470951004974E+000;2.559735606661177E+001;
1.407601929131501E+009;-1.775823734353049E+000;4.326244171033996E+001;
1.461356635527369E+009;-1.824843669503122E+000;4.757560275483465E+001;
1.517164172627645E+009;-1.849143030793940E+000;3.844741531656459E+001;
1.575102935687062E+009;-1.888747825482567E+000;1.509973495361662E+001;
1.635254313785392E+009;-1.927306664430676E+000;-2.272391857490397E+001;
1.697702804158197E+009;-1.976042304168508E+000;-7.575868383792049E+001;
1.762536130893741E+009;-2.013265675682187E+000;-1.446263572506971E+002;
1.829845368162803E+009;-2.060926531771227E+000;1.303628946020619E+002;
1.899725068154491E+009;-2.096992192095811E+000;2.810561571846726E+001;
1.972273393897780E+009;-2.138433579786951E+000;-9.173553649732290E+001;
2.047592257155356E+009;-2.180429336596762E+000;1.299054696310065E+002;
2.125787461583465E+009;-2.236843769539105E+000;-2.715570893552842E+001;
2.206968851358869E+009;-2.261390057305593E+000;1.558059399985670E+002;
2.291250465481706E+009;-2.340439044424440E+000;-4.141219222110139E+001;
2.378750697970985E+009;-2.364049815636145E+000;9.964663684723413E+001;
2.469592464177779E+009;-2.400735723789960E+000;-1.410012997742088E+002;
2.563903373449715E+009;-2.461996572836803E+000;-4.473839366309436E+001;
2.661815908389335E+009;-2.515689072411118E+000;2.767597916537434E+001;
2.763467610958116E+009;-2.561757154635410E+000;7.546220097180547E+001;
2.869001275687604E+009;-2.618945026941298E+000;9.726921508288578E+001;
2.978565150269043E+009;-2.671974022336487E+000;9.270039755390449E+001;
3.092313143803313E+009;-2.739284696058438E+000;6.046196781004054E+001;
3.210405043003673E+009;-2.811519649650777E+000;-3.753564436796849E-001;
3.333006736655056E+009;-2.842269469549200E+000;-9.141470758180296E+001;
3.460290448645197E+009;-2.909102010281063E+000;1.467694439399520E+002;
3.592434979894962E+009;-2.979183157934647E+000;-6.735554191133769E+000;
3.729625959527711E+009;-3.008470877059259E+000;1.658370719466376E+002;
3.872056105630537E+009;-3.071310961449833E+000;-5.644233829031648E+001;
4.019925495973672E+009;-3.312123190102849E+000;4.536579417335601E+001;
4.173441849068368E+009;-3.403267045818365E+000;1.103923671903792E+002;
4.332820815958047E+009;-3.331273893774747E+000;1.360437933739248E+002;
4.498286283152621E+009;-3.744782869921989E+000;1.214512676993790E+002;
4.670070687131537E+009;-3.659154964728097E+000;6.640104677930971E+001;
4.848415340857322E+009;-3.702385471074346E+000;-3.382042711856230E+001;
5.033570772758309E+009;-3.937580198180549E+000;-1.772109280739885E+002;
5.225797078656734E+009;-3.982826476851129E+000;-7.530148379869810E+000;
5.425364287136548E+009;-4.133153098247717E+000;1.140754552221712E+002;
5.632552738864227E+009;-4.151212284772732E+000;-1.753433977702914E+002;
5.847653480395394E+009;-4.152563429274400E+000;-1.581857652520352E+002;
6.070968673020469E+009;-4.081964009715111E+000;1.667534952748877E+002;
6.302812017223670E+009;-4.068304033712591E+000;7.266603919546525E+001;
6.543509193351618E+009;-4.150726242156071E+000;-7.864784428261028E+001;
6.793398319110564E+009;-4.219291802979458E+000;6.794303073583473E+001;
7.052830424534919E+009;-4.276462575997265E+000;1.522745903346178E+002;
7.322169945094285E+009;-4.344295646303066E+000;1.710383755682439E+002;
7.601795233631680E+009;-4.529522709075553E+000;1.217811799525460E+002;
7.892099091852097E+009;-4.543690107423492E+000;2.487819715867118E+000;
8.193489322108005E+009;-4.755226754813485E+000;1.688309273020086E+002;
8.506389300256902E+009;-4.742990514931055E+000;-1.005775338039911E+002;
8.831238570395649E+009;-4.857508895567765E+000;-8.862111313255127E+001;
9.168493462307018E+009;-5.061644825929720E+000;-1.585247276097916E+002;
9.518627732485830E+009;-5.148700228316939E+000;4.654967104323440E+001;
9.882133229645132E+009;-5.222046602780758E+000;1.621581077074491E+002;
1.025952058563731E+010;-5.399373328786166E+000;-1.732481461651492E+002;
1.065131993276066E+010;-5.553339955056377E+000;1.159278521397828E+002;
1.105808164845913E+010;-5.804159637129976E+000;-5.327407314686970E+001;
1.148037712846121E+010;-6.044859587308276E+000;3.403859711294695E+001;
1.191879958944423E+010;-6.448509404659735E+000;1.546137336708344E+001;
1.237396490235132E+010;-6.389104733075874E+000;-1.183361518234460E+002;
1.284651245753197E+010;-6.227306303103379E+000;5.001233351567523E-001;
1.333710606292122E+010;-6.374670674256249E+000;-3.188513650761261E+000;
1.384643487651927E+010;-6.670346616999567E+000;-1.309188165914672E+002;
1.437521437448148E+010;-6.615954023679036E+000;-2.897279349757426E+001;
1.492418735617858E+010;-6.797059171717992E+000;-5.885595021873886E+001;
1.549412498763898E+010;-6.887963536015694E+000;1.301344548680122E+002;
1.608582788483898E+010;-7.194802840008825E+000;1.745058195339813E+002;
1.670012723836252E+010;-7.595992744127022E+000;7.419398125497604E+001;
1.733788598101053E+010;-7.529954120148646E+000;1.772075556155870E+002;
1.800000000000000E+010;-7.410244619508625E+000;1.163415341775768E+002;
