# Version 1.00
#
freq[Hz];db:Trc1_S21;ang:Trc1_S21;
1.000000000000000E+007;-2.041651665041177E+001;-7.736974818307485E+001;
1.038188855303029E+007;-2.038348328190796E+001;-8.033800990912687E+001;
1.077836099275414E+007;-2.035816874111050E+001;-8.221451355275752E+001;
1.118997426111024E+007;-2.062803964803628E+001;-8.665748770932171E+001;
1.161730656901240E+007;-2.045565615643387E+001;-8.826865071432565E+001;
1.206095820858735E+007;-2.043155145936052E+001;-9.267362444413627E+001;
1.252155239643097E+007;-2.037806174595062E+001;-9.680193677549697E+001;
1.299973614906757E+007;-2.044394580584498E+001;-9.978187039554790E+001;
1.349618119184187E+007;-2.038797595051861E+001;-1.036122206992786E+002;
1.401158490252058E+007;-2.034645509426272E+001;-1.077737406754691E+002;
1.454667129092905E+007;-2.049513994173086E+001;-1.122224054160156E+002;
1.510219201599907E+007;-2.057040920481071E+001;-1.151790079828153E+002;
1.567892744165662E+007;-2.039784631730914E+001;-1.204537775838701E+002;
1.627768773303274E+007;-2.047812832370279E+001;-1.247194268638578E+002;
1.689931399453742E+007;-2.039116291442716E+001;-1.294769499203933E+002;
1.754467945139527E+007;-2.040689577901575E+001;-1.345460650057089E+002;
1.821469067630263E+007;-2.050908874328508E+001;-1.396008636197501E+002;
1.891028886292939E+007;-2.048098173930989E+001;-1.448382157885376E+002;
1.963245114805428E+007;-2.051057748570697E+001;-1.508363823752360E+002;
2.038219198419111E+007;-2.048583780634084E+001;-1.563852042624185E+002;
2.116056456463395E+007;-2.046641901581383E+001;-1.618816236447337E+002;
2.196866230292316E+007;-2.047269491278794E+001;-1.685079116298030E+002;
2.280762036881060E+007;-2.045701964927806E+001;-1.744520260078535E+002;
2.367861728288153E+007;-2.048071943261705E+001;1.782982906456950E+002;
2.458287657207330E+007;-2.044358559185402E+001;1.716940859508391E+002;
2.552166848841643E+007;-2.047275543652750E+001;1.645555984151696E+002;
2.649631179341245E+007;-2.049971152331557E+001;1.570299279729999E+002;
2.750817561055502E+007;-2.048683068677488E+001;1.494280663798352E+002;
2.855868134859682E+007;-2.049191332493851E+001;1.412728266527529E+002;
2.964930469826371E+007;-2.047607343686209E+001;1.326662022353667E+002;
3.078157770522112E+007;-2.052390176607394E+001;1.245162897776066E+002;
3.195709092220476E+007;-2.051153024306707E+001;1.153055945511189E+002;
3.317749564333858E+007;-2.054284073970521E+001;1.059230613404874E+002;
3.444450622377892E+007;-2.056015548998568E+001;9.622569789741482E+001;
3.575990248794310E+007;-2.055336393849304E+001;8.651713119020980E+001;
3.712553222970559E+007;-2.054579522505422E+001;7.579574311945042E+001;
3.854331380807376E+007;-2.058351166509129E+001;6.519012823505358E+001;
4.001523884198953E+007;-2.060047972101188E+001;5.374903082452101E+001;
4.154337500804243E+007;-2.057755023287668E+001;4.244241197743097E+001;
4.312986894502404E+007;-2.058111935098840E+001;3.014844629558205E+001;
4.477694926940417E+007;-2.056484639485349E+001;1.774314906154007E+001;
4.648692970596453E+007;-2.059105657021624E+001;4.427465303453080E+000;
4.826221233798770E+007;-2.057664498937285E+001;-9.062894647079917E+000;
5.010529098156718E+007;-2.060211960340700E+001;-2.314525272400702E+001;
5.201875468877842E+007;-2.063547285595069E+001;-3.774083323036794E+001;
5.400529138463195E+007;-2.061460504846449E+001;-5.273983520234025E+001;
5.606769164291760E+007;-2.063203511962285E+001;-6.849990441914707E+001;
5.820885260624383E+007;-2.065360469462596E+001;-8.481330474949938E+001;
6.043178205577903E+007;-2.060533004280777E+001;-1.019290151025502E+002;
6.273960263641138E+007;-2.067197890375612E+001;-1.195192260600236E+002;
6.513555624326284E+007;-2.069804245005525E+001;-1.376709248233206E+002;
6.762300857571912E+007;-2.068815395713953E+001;-1.566109831327455E+002;
7.020545386537276E+007;-2.070730711024604E+001;-1.760831439400274E+002;
7.288651978452097E+007;-2.069411809146973E+001;1.633123997541782E+002;
7.566997254211341E+007;-2.068565055777321E+001;1.422454953328097E+002;
7.855972217430838E+007;-2.074449538667944E+001;1.201337472967812E+002;
8.155982803706922E+007;-2.072395792624886E+001;9.733034717763454E+001;
8.467450450851679E+007;-2.074067089630013E+001;7.350952766986981E+001;
8.790812690904823E+007;-2.073600118206279E+001;4.891068946401073E+001;
9.126523764753820E+007;-2.075659675268683E+001;2.336907080593446E+001;
9.475055260225661E+007;-2.075398090884490E+001;-3.113529678956683E+000;
9.836896774546625E+007;-2.076464240799349E+001;-3.069175266735147E+001;
1.021255660210062E+008;-2.078499464851173E+001;-5.911956722825155E+001;
1.060256244845224E+008;-2.079885995274241E+001;-8.899161166414875E+001;
1.100746217163751E+008;-2.081000234106755E+001;-1.198572894706860E+002;
1.142782455176374E+008;-2.082694169813460E+001;-1.518123750134517E+002;
1.186424008999945E+008;-2.084119288874772E+001;1.750813987527063E+002;
1.231732183807684E+008;-2.086096265700419E+001;1.405901877506423E+002;
1.278770625947199E+008;-2.086125639669853E+001;1.047516913567812E+002;
1.327605412347261E+008;-2.087432750628897E+001;6.753040969307605E+001;
1.378305143338909E+008;-2.089286860147145E+001;2.898819361664907E+001;
1.430941039021300E+008;-2.090048446250633E+001;-1.108676821777582E+001;
1.485587039307650E+008;-2.091909697704922E+001;-5.259053636666313E+001;
1.542319907791826E+008;-2.092856968702494E+001;-9.576448201380836E+001;
1.601219339581469E+008;-2.095059293449342E+001;-1.406246141327930E+002;
1.662368073249158E+008;-2.096045761473628E+001;1.728918474739229E+002;
1.725852007058845E+008;-2.097603385719057E+001;1.245366997577122E+002;
1.791760319630858E+008;-2.099596877138400E+001;7.448569204845512E+001;
1.860185595214950E+008;-2.101172338258790E+001;2.241676942102288E+001;
1.931223953747393E+008;-2.103554018888580E+001;-3.162201279094385E+001;
2.004975185874796E+008;-2.104992037028902E+001;-8.766176570335000E+001;
2.081542893134333E+008;-2.105878052646026E+001;-1.459258374590980E+002;
2.161034633487289E+008;-2.108379855826908E+001;1.536710380428964E+002;
2.243562072410370E+008;-2.108683451311621E+001;9.083397977373257E+001;
2.329241139757013E+008;-2.111885522975200E+001;2.569083892361967E+001;
2.418192192609057E+008;-2.113109903593687E+001;-4.198497487203446E+001;
2.510540184347519E+008;-2.114637892916811E+001;-1.121913610176299E+002;
2.606414840180006E+008;-2.117443130019647E+001;1.749204568918794E+002;
2.705950839371309E+008;-2.119787369829140E+001;9.919790161624394E+001;
2.809288004433170E+008;-2.121793352982006E+001;2.068569960108177E+001;
2.916571497539004E+008;-2.123670275914440E+001;-6.083948107661983E+001;
3.027952024439460E+008;-2.125091900529128E+001;-1.455628501579678E+002;
3.143586046165293E+008;-2.128059044721820E+001;1.265625060916217E+002;
3.263635998814921E+008;-2.129708151564487E+001;3.526904786334223E+001;
3.388270521735421E+008;-2.131846641016513E+001;-5.949743559874366E+001;
3.517664694417494E+008;-2.134468576206152E+001;-1.578710496361398E+002;
3.652000282437178E+008;-2.137185948298475E+001;1.000448007956452E+002;
3.791465992789793E+008;-2.139861468222175E+001;-5.941377383944683E+000;
3.936257738974798E+008;-2.142858785319982E+001;-1.159627957113941E+002;
4.086578916203936E+008;-2.144189350486068E+001;1.298590999074187E+002;
4.242640687119258E+008;-2.146138009159082E+001;1.118144278737382E+001;
4.404662278422399E+008;-2.148572075769082E+001;-1.119764927724518E+002;
4.572871288831783E+008;-2.151513249504867E+001;1.201417832613921E+002;
4.747504008800356E+008;-2.155197794396110E+001;-1.254977350593240E+001;
4.928805752442984E+008;-2.157228419653887E+001;-1.502820149181887E+002;
5.117031202139767E+008;-2.158954729787283E+001;6.665097106177197E+001;
5.312444766299368E+008;-2.162417336394005E+001;-8.201272941827911E+001;
5.515320950784909E+008;-2.168961722574309E+001;1.239880324327040E+002;
5.725944744524199E+008;-2.169266192705429E+001;-3.592498470129962E+001;
5.944612019845973E+008;-2.171204125696846E+001;1.579168105484419E+002;
6.171629948104519E+008;-2.173496216732626E+001;-1.486122202192742E+001;
6.407317431176524E+008;-2.180746855774853E+001;1.662700625916276E+002;
6.652005549436301E+008;-2.181486423116720E+001;-1.961355976754000E+001;
6.906038026838671E+008;-2.182605438966546E+001;1.472619441814903E+002;
7.169771713762831E+008;-2.188540927618929E+001;-5.309072268009077E+001;
7.443577088295471E+008;-2.191128160601415E+001;9.889385100315491E+001;
7.727838776657330E+008;-2.191511995324548E+001;-1.171449516747045E+002;
8.022956093504235E+008;-2.198730068111360E+001;1.871656749494700E+001;
8.329343602861624E+008;-2.202542201357679E+001;1.460832532994483E+002;
8.647431700480518E+008;-2.202851569478869E+001;-9.585684104914564E+001;
8.977667218432996E+008;-2.212560073030794E+001;1.326779585898431E+001;
9.320514052796482E+008;-2.209858309439053E+001;1.130924016680976E+002;
9.676453815308577E+008;-2.217600654228410E+001;-1.578267647027863E+002;
1.004598650990784E+009;-2.223566957762668E+001;-7.768665042315992E+001;
1.042963123511089E+009;-2.221711492066343E+001;-9.705821746823396E+000;
1.082792691321250E+009;-2.233018055210547E+001;4.821945907395413E+001;
1.124143304733295E+009;-2.228989205945436E+001;9.359891862505469E+001;
1.167073050737623E+009;-2.241683537938368E+001;1.280066194615212E+002;
1.211642234600307E+009;-2.237971961726368E+001;1.489149577194351E+002;
1.257913464576497E+009;-2.248832548393041E+001;1.578979000903228E+002;
1.305951739858941E+009;-2.253187252075722E+001;1.524945091836159E+002;
1.355824541885154E+009;-2.255784870902485E+001;1.345177435286846E+002;
1.407601929131501E+009;-2.262778156860436E+001;1.006226192344518E+002;
1.461356635527369E+009;-2.260950557587022E+001;5.231602648695611E+001;
1.517164172627645E+009;-2.273352910614290E+001;-1.077713086331328E+001;
1.575102935687062E+009;-2.279645172255044E+001;-9.193738752978997E+001;
1.635254313785392E+009;-2.273583361995945E+001;1.715137579602239E+002;
1.697702804158197E+009;-2.282464362453210E+001;5.789086564258179E+001;
1.762536130893741E+009;-2.295881780542471E+001;-7.475977040635142E+001;
1.829845368162803E+009;-2.299826930475260E+001;1.335564758506594E+002;
1.899725068154491E+009;-2.297194944914086E+001;-3.722733929585935E+001;
1.972273393897780E+009;-2.298899644331991E+001;1.321085949797453E+002;
2.047592257155356E+009;-2.306925788031443E+001;-7.957414198556717E+001;
2.125787461583465E+009;-2.319078434143324E+001;4.682892865193246E+001;
2.206968851358869E+009;-2.328839018064378E+001;1.502245951622051E+002;
2.291250465481706E+009;-2.336618346962766E+001;-1.298209088580943E+002;
2.378750697970985E+009;-2.345159539324813E+001;-7.423370074006505E+001;
2.469592464177779E+009;-2.346782312872896E+001;-4.414761100211970E+001;
2.563903373449715E+009;-2.347606747585754E+001;-4.008165266895632E+001;
2.661815908389335E+009;-2.346784433044886E+001;-6.476260474596185E+001;
2.763467610958116E+009;-2.367275640695791E+001;-1.178400824459303E+002;
2.869001275687604E+009;-2.396967698523569E+001;1.612930712504181E+002;
2.978565150269043E+009;-2.403641385890026E+001;5.150907710462171E+001;
3.092313143803313E+009;-2.377779648650413E+001;-9.474595657417950E+001;
3.210405043003673E+009;-2.424307145756497E+001;8.875762192543222E+001;
3.333006736655056E+009;-2.416579273858698E+001;-1.193966678391656E+002;
3.460290448645197E+009;-2.449121523208213E+001;-9.550945265564476E+000;
3.592434979894962E+009;-2.427623133394192E+001;7.144800812436174E+001;
3.729625959527711E+009;-2.503342132492917E+001;1.075476189691350E+002;
3.872056105630537E+009;-2.457857713176145E+001;1.033439808923868E+002;
4.019925495973672E+009;-2.438876535232669E+001;6.406997682661709E+001;
4.173441849068368E+009;-2.474358391396631E+001;-2.023097941667421E+001;
4.332820815958047E+009;-2.505068176593741E+001;-1.507042717849104E+002;
4.498286283152621E+009;-2.536239983963436E+001;3.214177192451228E+001;
4.670070687131537E+009;-2.560896696347677E+001;1.664627410915434E+002;
4.848415340857322E+009;-2.579032441906426E+001;-1.069266423874747E+002;
5.033570772758309E+009;-2.574879275760315E+001;-7.102007991457819E+001;
5.225797078656734E+009;-2.542483598775803E+001;-9.090945264200356E+001;
5.425364287136548E+009;-2.597431603236510E+001;-1.687237218162693E+002;
5.632552738864227E+009;-2.636703235173424E+001;6.483439038861800E+001;
5.847653480395394E+009;-2.577511967732718E+001;-1.307072191186887E+002;
6.070968673020469E+009;-2.575175583239688E+001;-2.249636500670113E+001;
6.302812017223670E+009;-2.620729102570408E+001;1.491847012719251E+001;
6.543509193351618E+009;-2.613956824694529E+001;-1.490839901826020E+001;
6.793398319110564E+009;-2.567877342258576E+001;-1.117106119100670E+002;
7.052830424534919E+009;-2.605018338433695E+001;7.608311726503948E+001;
7.322169945094285E+009;-2.641038451705830E+001;-1.676930079960987E+002;
7.601795233631680E+009;-2.656023019115365E+001;-1.283794879727836E+002;
7.892099091852097E+009;-2.618965170817511E+001;-1.720497255789957E+002;
8.193489322108005E+009;-2.699950997594733E+001;5.755407755015523E+001;
8.506389300256902E+009;-2.645955510141415E+001;-1.569955384328956E+002;
8.831238570395649E+009;-2.647283524495263E+001;-9.954191737289602E+001;
9.168493462307018E+009;-2.659825983973560E+001;-1.422423701445405E+002;
9.518627732485830E+009;-2.645765549511021E+001;7.559602117656122E+001;
9.882133229645132E+009;-2.660646420007441E+001;-1.668272464011803E+002;
1.025952058563731E+010;-2.671915020201352E+001;-1.515310374101802E+002;
1.065131993276066E+010;-2.714253574981125E+001;1.117148892544101E+002;
1.105808164845913E+010;-2.686581563073637E+001;-9.693932542332821E+001;
1.148037712846121E+010;-2.691157174602325E+001;-6.233219354128433E+001;
1.191879958944423E+010;-2.730587023504183E+001;-1.547999831536678E+002;
1.237396490235132E+010;-2.723186588554902E+001;-1.132942992343063E+001;
1.284651245753197E+010;-2.713480393214591E+001;7.623175444464837E-001;
1.333710606292122E+010;-2.727486891749449E+001;-1.289691437030843E+002;
1.384643487651927E+010;-2.735210927534307E+001;-3.859592950828473E+001;
1.437521437448148E+010;-2.806140959104311E+001;-9.998189418780466E+001;
1.492418735617858E+010;-2.798727090181686E+001;5.401956314674274E+001;
1.549412498763898E+010;-2.886286340169301E+001;3.521328435798548E+001;
1.608582788483898E+010;-2.905985682845802E+001;-1.436128895611027E+002;
1.670012723836252E+010;-2.963989119872147E+001;-1.285263163823910E+002;
1.733788598101053E+010;-2.883173636336359E+001;6.314290181574634E+001;
1.800000000000000E+010;-3.026091751399443E+001;7.314018979873455E+001;
