# Version 1.00
#
freq[Hz];db:Trc1_S21;ang:Trc1_S21;
1.000000000000000E+007;-2.664025532864747E-001;-5.353222673382616E+001;
1.038188855303029E+007;-4.362360902288042E-001;-6.001336773436873E+001;
1.077836099275414E+007;-3.392288350989536E-001;-5.433009551643937E+001;
1.118997426111024E+007;2.015190381090652E-001;-6.112657510960441E+001;
1.161730656901240E+007;2.337050046198307E-001;-6.610802091662227E+001;
1.206095820858735E+007;-2.297877385059403E-001;-6.488825767872069E+001;
1.252155239643097E+007;9.010529563279998E-002;-6.637929013758935E+001;
1.299973614906757E+007;-1.686173419943696E-002;-7.225432437831400E+001;
1.349618119184187E+007;-2.710295110074851E-001;-7.128124240806660E+001;
1.401158490252058E+007;-7.895979404497157E-002;-7.615072757481634E+001;
1.454667129092905E+007;6.071014864445123E-002;-7.814063386122015E+001;
1.510219201599907E+007;-5.440237475636899E-002;-8.315334521689296E+001;
1.567892744165662E+007;4.551694654818619E-002;-8.466218357245265E+001;
1.627768773303274E+007;-1.981471876914632E-001;-8.966230629880653E+001;
1.689931399453742E+007;-1.530362397255091E-001;-9.126855100760380E+001;
1.754467945139527E+007;-1.465092028599909E-001;-9.555030941730702E+001;
1.821469067630263E+007;1.983928777954341E-001;-9.853094676795061E+001;
1.891028886292939E+007;-4.558735176746241E-001;-1.028636455060812E+002;
1.963245114805428E+007;-2.718996387262210E-001;-1.052391143122653E+002;
2.038219198419111E+007;-2.776228072289353E-001;-1.107616802373862E+002;
2.116056456463395E+007;-2.629336290549639E-001;-1.173976329516988E+002;
2.196866230292316E+007;-2.086383873713423E-001;-1.191035248480555E+002;
2.280762036881060E+007;-2.819236233413620E-001;-1.227911261997945E+002;
2.367861728288153E+007;-2.737048267703853E-001;-1.284978088694951E+002;
2.458287657207330E+007;-1.891060213849719E-001;-1.337369917086653E+002;
2.552166848841643E+007;-3.460426288945350E-001;-1.377406705382058E+002;
2.649631179341245E+007;-3.978182107752894E-001;-1.434984935089337E+002;
2.750817561055502E+007;-1.253741923471171E-001;-1.491445657863407E+002;
2.855868134859682E+007;-1.846246735978103E-001;-1.548165611223563E+002;
2.964930469826371E+007;-1.675338032436410E-001;-1.615115049262209E+002;
3.078157770522112E+007;-1.416015898323671E-001;-1.675187461697371E+002;
3.195709092220476E+007;-3.405995216848873E-001;-1.719712226861627E+002;
3.317749564333858E+007;-6.004258812345400E-002;-1.796362878088641E+002;
3.444450622377892E+007;-1.619766716912471E-001;1.747874656427222E+002;
3.575990248794310E+007;-1.644960330207463E-001;1.657306050948900E+002;
3.712553222970559E+007;-2.317088651077229E-001;1.590689793158377E+002;
3.854331380807376E+007;-2.960021240567434E-001;1.515241407216209E+002;
4.001523884198953E+007;-1.998124343158481E-001;1.444619647127564E+002;
4.154337500804243E+007;-2.119219673798359E-001;1.355392119374346E+002;
4.312986894502404E+007;-2.495514430389120E-001;1.263377249539477E+002;
4.477694926940417E+007;-3.542173436638126E-001;1.183380949967071E+002;
4.648692970596453E+007;-1.619253054889402E-001;1.081674923348341E+002;
4.826221233798770E+007;-1.914509690246132E-001;9.944496444915301E+001;
5.010529098156718E+007;-2.854950976027073E-001;8.947516113123963E+001;
5.201875468877842E+007;-2.436038156543948E-001;7.904465583705003E+001;
5.400529138463195E+007;-2.548379163274473E-001;6.818944010673948E+001;
5.606769164291760E+007;-2.701726344422833E-001;5.705836550900282E+001;
5.820885260624383E+007;-2.489321535001173E-001;4.567338703229247E+001;
6.043178205577903E+007;-3.003793678701606E-001;3.373191632416065E+001;
6.273960263641138E+007;-3.200887843694610E-001;2.131046803451159E+001;
6.513555624326284E+007;-3.140303907456631E-001;8.135260358408386E+000;
6.762300857571912E+007;-3.018512792985474E-001;-5.215511098989902E+000;
7.020545386537276E+007;-3.207302002238385E-001;-1.909847704895008E+001;
7.288651978452097E+007;-2.925866421850696E-001;-3.331441718523338E+001;
7.566997254211341E+007;-3.454823304828978E-001;-4.857334183998967E+001;
7.855972217430838E+007;-3.464714117879095E-001;-6.342194190010674E+001;
8.155982803706922E+007;-3.202562579560276E-001;-8.034512701826458E+001;
8.467450450851679E+007;-3.255669566824324E-001;-9.705385927235791E+001;
8.790812690904823E+007;-4.135909673775935E-001;-1.144776063262616E+002;
9.126523764753820E+007;-3.653240463593573E-001;-1.323309591495168E+002;
9.475055260225661E+007;-4.023561918183694E-001;-1.509723980521503E+002;
9.836896774546625E+007;-4.264261223511147E-001;-1.711098144226569E+002;
1.021255660210062E+008;-3.821777606973944E-001;1.689383792526527E+002;
1.060256244845224E+008;-3.968891322161121E-001;1.482124742248547E+002;
1.100746217163751E+008;-4.131154894956491E-001;1.260744069345123E+002;
1.142782455176374E+008;-4.127503816359101E-001;1.035102896752220E+002;
1.186424008999945E+008;-4.353166952293229E-001;7.977882510635136E+001;
1.231732183807684E+008;-4.091998307445204E-001;5.586109895533870E+001;
1.278770625947199E+008;-4.105222945401657E-001;3.034949986032870E+001;
1.327605412347261E+008;-4.304053855786327E-001;4.301029213952527E+000;
1.378305143338909E+008;-4.252950428522397E-001;-2.294701208397301E+001;
1.430941039021300E+008;-4.551157076073747E-001;-5.157434961604353E+001;
1.485587039307650E+008;-4.534404328496291E-001;-8.087673675583210E+001;
1.542319907791826E+008;-4.858097449045056E-001;-1.113918745951282E+002;
1.601219339581469E+008;-4.544300380692118E-001;-1.428919177341935E+002;
1.662368073249158E+008;-4.816659430391341E-001;-1.760550370844583E+002;
1.725852007058845E+008;-5.149830108468519E-001;1.498056990154704E+002;
1.791760319630858E+008;-5.030902649015887E-001;1.146039391206683E+002;
1.860185595214950E+008;-5.313375197146167E-001;7.763965251036824E+001;
1.931223953747393E+008;-5.131558880063212E-001;3.942588723148585E+001;
2.004975185874796E+008;-5.375133754781978E-001;-3.752154311878631E-001;
2.081542893134333E+008;-5.400722221145673E-001;-4.146302004050176E+001;
2.161034633487289E+008;-5.495615467732968E-001;-8.431116350497666E+001;
2.243562072410370E+008;-5.632785093458025E-001;-1.284940759364188E+002;
2.329241139757013E+008;-5.847709075001399E-001;-1.747088224012414E+002;
2.418192192609057E+008;-5.860911992178264E-001;1.374559316826939E+002;
2.510540184347519E+008;-6.281722935955961E-001;8.778672565580541E+001;
2.606414840180006E+008;-6.240735458674463E-001;3.622784818872490E+001;
2.705950839371309E+008;-6.551971734821334E-001;-1.723781835251344E+001;
2.809288004433170E+008;-6.608902507728151E-001;-7.282018120921339E+001;
2.916571497539004E+008;-6.868034782437736E-001;-1.305675009278505E+002;
3.027952024439460E+008;-6.998799095590045E-001;1.695707512754452E+002;
3.143586046165293E+008;-6.885998960198116E-001;1.074850370155818E+002;
3.263635998814921E+008;-7.148653275846096E-001;4.288731137441150E+001;
3.388270521735421E+008;-7.119516493374368E-001;-2.415009254706083E+001;
3.517664694417494E+008;-7.428390233796057E-001;-9.375353869233234E+001;
3.652000282437178E+008;-7.663269383262531E-001;-1.658744636564098E+002;
3.791465992789793E+008;-7.724037595550705E-001;1.191183033689158E+002;
3.936257738974798E+008;-7.882614338528835E-001;4.129356841057535E+001;
4.086578916203936E+008;-8.087064914509637E-001;-3.941910924278966E+001;
4.242640687119258E+008;-8.203718298771433E-001;-1.233256492660251E+002;
4.404662278422399E+008;-8.389268680403789E-001;1.495039835236400E+002;
4.572871288831783E+008;-8.597480828473237E-001;5.908130938233189E+001;
4.747504008800356E+008;-8.783851440153073E-001;-3.473971914338729E+001;
4.928805752442984E+008;-8.902877571222030E-001;-1.321998847126590E+002;
5.117031202139767E+008;-8.966833416019904E-001;1.266670811453062E+002;
5.312444766299368E+008;-9.228426912447298E-001;2.170671185842716E+001;
5.515320950784909E+008;-9.464603869072719E-001;-8.750377419863281E+001;
5.725944744524199E+008;-9.726537776999549E-001;1.593998136583208E+002;
5.944612019845973E+008;-9.983976829511105E-001;4.184935091837007E+001;
6.171629948104519E+008;-1.002110999164252E+000;-8.008016210916554E+001;
6.407317431176524E+008;-1.018898101453057E+000;1.532253442770098E+002;
6.652005549436301E+008;-1.043970744711698E+000;2.176179814652865E+001;
6.906038026838671E+008;-1.061914993968874E+000;-1.147706549323045E+002;
7.169771713762831E+008;-1.087647225496348E+000;1.034898512587551E+002;
7.443577088295471E+008;-1.104393132559499E+000;-4.367932766708847E+001;
7.727838776657330E+008;-1.132916831955815E+000;1.636116762067045E+002;
8.022956093504235E+008;-1.150338543347775E+000;4.981932374982035E+000;
8.329343602861624E+008;-1.172829964892589E+000;-1.596180047009563E+002;
8.647431700480518E+008;-1.198016531188012E+000;2.944843111154914E+001;
8.977667218432996E+008;-1.223653259101605E+000;-1.480311911236624E+002;
9.320514052796482E+008;-1.238657613065813E+000;2.785448292050692E+001;
9.676453815308577E+008;-1.265036639034209E+000;-1.634816777586610E+002;
1.004598650990784E+009;-1.310437336368710E+000;-2.015466687862395E+000;
1.042963123511089E+009;-1.324043043183820E+000;1.519157290680052E+002;
1.082792691321250E+009;-1.347919379594654E+000;-6.213192853292205E+001;
1.124143304733295E+009;-1.373303259630439E+000;7.571474196820893E+001;
1.167073050737623E+009;-1.403928767176381E+000;-1.548778561674371E+002;
1.211642234600307E+009;-1.439296764944038E+000;-3.437578347959286E+001;
1.257913464576497E+009;-1.457241921484011E+000;7.702337746317811E+001;
1.305951739858941E+009;-1.487723761365764E+000;1.788687493471689E+002;
1.355824541885154E+009;-1.521625674184512E+000;-8.901579612629281E+001;
1.407601929131501E+009;-1.544990372010086E+000;-7.108442958747218E+000;
1.461356635527369E+009;-1.587757500905164E+000;6.408361794561087E+001;
1.517164172627645E+009;-1.616647840366295E+000;1.242339439420644E+002;
1.575102935687062E+009;-1.637283464421156E+000;1.729311239863891E+002;
1.635254313785392E+009;-1.678188152577785E+000;-1.501571317038457E+002;
1.697702804158197E+009;-1.713833190059130E+000;-1.256060717220840E+002;
1.762536130893741E+009;-1.746929602604586E+000;-1.139164725870351E+002;
1.829845368162803E+009;-1.782088349568732E+000;-1.155919744707254E+002;
1.899725068154491E+009;-1.834889951332984E+000;-1.307474438146319E+002;
1.972273393897780E+009;-1.840628547240475E+000;-1.606664151395574E+002;
2.047592257155356E+009;-1.897378175422910E+000;1.546603423753143E+002;
2.125787461583465E+009;-1.922915397998609E+000;9.477201888145535E+001;
2.206968851358869E+009;-2.017776129544929E+000;1.861951512836791E+001;
2.291250465481706E+009;-2.006068528229040E+000;-7.403766214420918E+001;
2.378750697970985E+009;-2.096515075257406E+000;1.760331926122855E+002;
2.469592464177779E+009;-2.079955978816642E+000;4.797879608788409E+001;
2.563903373449715E+009;-2.167989963137383E+000;-9.859596009111205E+001;
2.661815908389335E+009;-2.197685307092159E+000;9.564751477224301E+001;
2.763467610958116E+009;-2.216871272233475E+000;-9.038800658578820E+001;
2.869001275687604E+009;-2.284930028038466E+000;6.228753959616120E+001;
2.978565150269043E+009;-2.348319115040109E+000;-1.657907665434667E+002;
3.092313143803313E+009;-2.337032964992473E+000;-5.688577878895403E+001;
3.210405043003673E+009;-2.421338791116644E+000;2.885910057495699E+001;
3.333006736655056E+009;-2.551569200682023E+000;9.071298424248654E+001;
3.460290448645197E+009;-2.510530804357887E+000;1.263554376728069E+002;
3.592434979894962E+009;-2.586935226125290E+000;1.366934679488781E+002;
3.729625959527711E+009;-2.615577903901813E+000;1.200658248439090E+002;
3.872056105630537E+009;-2.671551917376100E+000;7.564992330079906E+001;
4.019925495973672E+009;-2.907636324257612E+000;7.923164796371812E-001;
4.173441849068368E+009;-2.798861538369565E+000;-1.038959308403598E+002;
4.332820815958047E+009;-3.089272383037055E+000;1.202358079357987E+002;
4.498286283152621E+009;-2.959740712596131E+000;-4.930114500625812E+001;
4.670070687131537E+009;-3.000133263925107E+000;1.090772176488775E+002;
4.848415340857322E+009;-3.085890168187062E+000;-1.294089528822437E+002;
5.033570772758309E+009;-3.121922306804056E+000;-4.386454008074207E+001;
5.225797078656734E+009;-3.186700146711024E+000;3.099848175307776E+000;
5.425364287136548E+009;-3.401123099840274E+000;1.142214446512354E+001;
5.632552738864227E+009;-3.487508538753354E+000;-2.080896460639573E+001;
5.847653480395394E+009;-3.413406288991208E+000;-9.652639538767446E+001;
6.070968673020469E+009;-3.567620523307727E+000;1.442767248030350E+002;
6.302812017223670E+009;-3.603664561210220E+000;-2.212687790111516E+001;
6.543509193351618E+009;-3.845233192447304E+000;1.250875419607854E+002;
6.793398319110564E+009;-3.955264017239643E+000;-1.378150010923315E+002;
7.052830424534919E+009;-4.133165461983903E+000;-9.077391559467912E+001;
7.322169945094285E+009;-4.306749495292298E+000;-9.856920427044577E+001;
7.601795233631680E+009;-4.513975376354443E+000;-1.573583256402128E+002;
7.892099091852097E+009;-4.785438130865126E+000;8.360285169058982E+001;
8.193489322108005E+009;-4.464730856083379E+000;-9.671111200009656E+001;
8.506389300256902E+009;-4.393016656806667E+000;2.239983017726361E+001;
8.831238570395649E+009;-4.710253713940726E+000;7.770617426236400E+001;
9.168493462307018E+009;-5.156659636145006E+000;6.758080096406442E+001;
9.518627732485830E+009;-4.724133466843496E+000;-1.248956095922497E+001;
9.882133229645132E+009;-4.949149255116950E+000;-1.700288613816397E+002;
1.025952058563731E+010;-5.083252826697147E+000;-3.660625457795455E+001;
1.065131993276066E+010;-5.218631690232153E+000;1.828225963479446E+001;
1.105808164845913E+010;-5.387493207460760E+000;-8.777925662055123E+000;
1.148037712846121E+010;-5.674330405520583E+000;-1.137045778363839E+002;
1.191879958944423E+010;-5.644505561557725E+000;4.797846477550777E+001;
1.237396490235132E+010;-5.716691143403663E+000;1.199397977662854E+002;
1.284651245753197E+010;-6.076396865702640E+000;9.939472856550349E+001;
1.333710606292122E+010;-6.415787627410980E+000;-1.741686983195129E+001;
1.384643487651927E+010;-6.284592298150669E+000;1.253663430623470E+002;
1.437521437448148E+010;-6.236364224839923E+000;1.590653429813231E+002;
1.492418735617858E+010;-6.379385503125572E+000;8.362501552179351E+001;
1.549412498763898E+010;-7.341648696756066E+000;-1.102384342365711E+002;
1.608582788483898E+010;-8.977421901365275E+000;-4.337012459241706E+001;
1.670012723836252E+010;-7.406822704490009E+000;-1.193860847828280E+002;
1.733788598101053E+010;-1.045782277353111E+001;4.628493139574997E+001;
1.800000000000000E+010;-1.121208378679880E+001;8.062888359270777E+001;
