# Version 1.00
#
freq[Hz];db:Trc1_S21;ang:Trc1_S21;
1.000000000000000E+007;-2.182517243070921E-001;-5.391206251022516E+001;
1.038188855303029E+007;-9.338007155450806E-002;-5.679126714880147E+001;
1.077836099275414E+007;-9.228504848495076E-002;-5.937971416277328E+001;
1.118997426111024E+007;-5.318655577014790E-002;-6.147395694046977E+001;
1.161730656901240E+007;-1.196437084285527E-001;-6.286614532907721E+001;
1.206095820858735E+007;-1.382995673543197E-002;-6.607388086330249E+001;
1.252155239643097E+007;-1.086950412860489E-001;-6.827817615561922E+001;
1.299973614906757E+007;-1.719787888074459E-001;-7.142427696403637E+001;
1.349618119184187E+007;-1.411965413295041E-001;-7.313444137306806E+001;
1.401158490252058E+007;-2.279807170016922E-001;-7.720065009776282E+001;
1.454667129092905E+007;-1.267368128398162E-001;-7.977153495337235E+001;
1.510219201599907E+007;-1.342121875318662E-002;-8.233066288250062E+001;
1.567892744165662E+007;1.613232316269739E-002;-8.531021778564434E+001;
1.627768773303274E+007;-1.728151688791121E-001;-8.919240323656440E+001;
1.689931399453742E+007;-1.019378791878923E-001;-9.240137646290279E+001;
1.754467945139527E+007;-9.144559983477910E-002;-9.534639860964705E+001;
1.821469067630263E+007;-1.979792182346785E-001;-9.970370740206548E+001;
1.891028886292939E+007;-1.404695094898177E-001;-1.035582313893152E+002;
1.963245114805428E+007;-1.406697694023178E-001;-1.068901769725290E+002;
2.038219198419111E+007;-2.414025891682174E-001;-1.115649249002399E+002;
2.116056456463395E+007;-1.931379824252926E-001;-1.156914092782813E+002;
2.196866230292316E+007;-1.148847052417559E-001;-1.200013605604216E+002;
2.280762036881060E+007;-1.884737041672897E-001;-1.244566700834796E+002;
2.367861728288153E+007;-1.855816985462728E-001;-1.293304729167193E+002;
2.458287657207330E+007;-2.338855011216421E-001;-1.340480400617092E+002;
2.552166848841643E+007;-1.240398678998094E-001;-1.388328082118636E+002;
2.649631179341245E+007;-2.003708088974258E-001;-1.447046516177814E+002;
2.750817561055502E+007;-1.841430193873467E-001;-1.501292450316010E+002;
2.855868134859682E+007;-1.782477758950080E-001;-1.558551072362031E+002;
2.964930469826371E+007;-2.096596227770901E-001;-1.613101821190399E+002;
3.078157770522112E+007;-1.801007199540238E-001;-1.680729674483985E+002;
3.195709092220476E+007;-2.519124813060931E-001;-1.741254890949024E+002;
3.317749564333858E+007;-2.185127424889063E-001;1.793945347895613E+002;
3.444450622377892E+007;-2.078800914391993E-001;1.722514492594405E+002;
3.575990248794310E+007;-1.571346036981085E-001;1.651121033775470E+002;
3.712553222970559E+007;-2.090686480106190E-001;1.577177095297880E+002;
3.854331380807376E+007;-2.386940559272957E-001;1.499203950638007E+002;
4.001523884198953E+007;-2.437690803275863E-001;1.420797956120080E+002;
4.154337500804243E+007;-2.355072022818634E-001;1.336028012965064E+002;
4.312986894502404E+007;-2.522736015982527E-001;1.254577502619352E+002;
4.477694926940417E+007;-2.326592653076244E-001;1.163056433172766E+002;
4.648692970596453E+007;-2.395486115294598E-001;1.069591660105905E+002;
4.826221233798770E+007;-2.076522381218847E-001;9.719148557963639E+001;
5.010529098156718E+007;-2.937124605480478E-001;8.752131910346861E+001;
5.201875468877842E+007;-2.767218586444480E-001;7.682723494776424E+001;
5.400529138463195E+007;-2.749351206491647E-001;6.622050558532961E+001;
5.606769164291760E+007;-2.559820177929137E-001;5.499148757728526E+001;
5.820885260624383E+007;-2.860901704592855E-001;4.347143900024317E+001;
6.043178205577903E+007;-3.003997702047672E-001;3.140232557608823E+001;
6.273960263641138E+007;-2.892527449325749E-001;1.868919233432953E+001;
6.513555624326284E+007;-2.955798054748572E-001;5.986825034712070E+000;
6.762300857571912E+007;-2.986777393501165E-001;-7.653499251350345E+000;
7.020545386537276E+007;-3.171344723429803E-001;-2.153001731026724E+001;
7.288651978452097E+007;-3.252608560216629E-001;-3.604030577698548E+001;
7.566997254211341E+007;-3.257674970328776E-001;-5.122052295188698E+001;
7.855972217430838E+007;-3.429622014518787E-001;-6.685713088043798E+001;
8.155982803706922E+007;-3.392171476018489E-001;-8.317200853334845E+001;
8.467450450851679E+007;-3.487130476022997E-001;-1.001329832982638E+002;
8.790812690904823E+007;-3.601270049986509E-001;-1.175864513057020E+002;
9.126523764753820E+007;-3.578017640825020E-001;-1.358666647642635E+002;
9.475055260225661E+007;-3.700258584493644E-001;-1.545750547097604E+002;
9.836896774546625E+007;-3.760229598088101E-001;-1.742416315786782E+002;
1.021255660210062E+008;-3.934000945092605E-001;1.653213037980033E+002;
1.060256244845224E+008;-3.967052049645694E-001;1.442880442678273E+002;
1.100746217163751E+008;-3.957495917567642E-001;1.223789030896100E+002;
1.142782455176374E+008;-4.191053646200839E-001;9.952087081995778E+001;
1.186424008999945E+008;-4.073961544122629E-001;7.591174857802345E+001;
1.231732183807684E+008;-4.203018898734848E-001;5.133091574569489E+001;
1.278770625947199E+008;-4.447001242059318E-001;2.590112268301132E+001;
1.327605412347261E+008;-4.605217028478003E-001;-5.766015296708538E-001;
1.378305143338909E+008;-4.465061711806924E-001;-2.802945331950075E+001;
1.430941039021300E+008;-4.727263525457944E-001;-5.651915114343441E+001;
1.485587039307650E+008;-4.649877193825616E-001;-8.613266422280995E+001;
1.542319907791826E+008;-4.738582120778237E-001;-1.169293016599729E+002;
1.601219339581469E+008;-4.909472666724019E-001;-1.487545210444828E+002;
1.662368073249158E+008;-5.022787927077341E-001;1.781764825059911E+002;
1.725852007058845E+008;-5.109123174578650E-001;1.437483913464837E+002;
1.791760319630858E+008;-5.307293777550167E-001;1.080465836073844E+002;
1.860185595214950E+008;-5.374559637421685E-001;7.103260316672845E+001;
1.931223953747393E+008;-5.481033351121364E-001;3.260340447094636E+001;
2.004975185874796E+008;-5.528652834259566E-001;-7.373222733719715E+000;
2.081542893134333E+008;-5.746158151050640E-001;-4.878588623801610E+001;
2.161034633487289E+008;-5.809609822994837E-001;-9.181599392470288E+001;
2.243562072410370E+008;-5.930784684020286E-001;-1.364416157910358E+002;
2.329241139757013E+008;-6.133327766807821E-001;1.771592056917989E+002;
2.418192192609057E+008;-6.129239952272274E-001;1.289952688122971E+002;
2.510540184347519E+008;-6.435581614112432E-001;7.899635559149836E+001;
2.606414840180006E+008;-6.525256250782491E-001;2.711439299266011E+001;
2.705950839371309E+008;-6.668022989052888E-001;-2.675546165328342E+001;
2.809288004433170E+008;-6.875273194456302E-001;-8.267059809666378E+001;
2.916571497539004E+008;-7.027932201629479E-001;-1.407194848884383E+002;
3.027952024439460E+008;-7.221853872750752E-001;1.590412223724377E+002;
3.143586046165293E+008;-7.252162030360793E-001;9.649943526122912E+001;
3.263635998814921E+008;-7.387376093850010E-001;3.148567513864116E+001;
3.388270521735421E+008;-7.494730176862823E-001;-3.595568017046855E+001;
3.517664694417494E+008;-7.752758873257386E-001;-1.059862188649411E+002;
3.652000282437178E+008;-7.945883883813748E-001;-1.786362782033245E+002;
3.791465992789793E+008;-8.042945485647152E-001;1.059270647736342E+002;
3.936257738974798E+008;-8.260691684456221E-001;2.755924238318612E+001;
4.086578916203936E+008;-8.423643154405681E-001;-5.382633135711718E+001;
4.242640687119258E+008;-8.705893115275573E-001;-1.382331892456421E+002;
4.404662278422399E+008;-8.839504106202893E-001;1.342395443270655E+002;
4.572871288831783E+008;-8.914701588689152E-001;4.319307982102839E+001;
4.747504008800356E+008;-9.189384118269794E-001;-5.126955021063344E+001;
4.928805752442984E+008;-9.372950072781157E-001;-1.493453806627512E+002;
5.117031202139767E+008;-9.520568774811768E-001;1.088280265394979E+002;
5.312444766299368E+008;-9.738772188477476E-001;3.135479438034447E+000;
5.515320950784909E+008;-9.941707937295050E-001;-1.066023386996458E+002;
5.725944744524199E+008;-1.015620346203696E+000;1.395231758600539E+002;
5.944612019845973E+008;-1.041253534391686E+000;2.124063418839480E+001;
6.171629948104519E+008;-1.052652569354870E+000;-1.015044285764612E+002;
6.407317431176524E+008;-1.076895607387968E+000;1.309905117920931E+002;
6.652005549436301E+008;-1.107195348592143E+000;-1.341684412498128E+000;
6.906038026838671E+008;-1.120347087558834E+000;-1.387038219930227E+002;
7.169771713762831E+008;-1.149684148643258E+000;7.864958189495421E+001;
7.443577088295471E+008;-1.166594834912728E+000;-6.933977269681462E+001;
7.727838776657330E+008;-1.199107992999088E+000;1.368951150531602E+002;
8.022956093504235E+008;-1.219466250501992E+000;-2.266519586001268E+001;
8.329343602861624E+008;-1.244430217009431E+000;1.716010322771214E+002;
8.647431700480518E+008;-1.267164011509534E+000;-3.599580118745207E-001;
8.977667218432996E+008;-1.299298578540481E+000;-1.789499756385916E+002;
9.320514052796482E+008;-1.314410161811327E+000;-4.319197933684108E+000;
9.676453815308577E+008;-1.350280117439938E+000;1.631666614595275E+002;
1.004598650990784E+009;-1.369967608657294E+000;-3.658009161551344E+001;
1.042963123511089E+009;-1.398491986115436E+000;1.160029193274526E+002;
1.082792691321250E+009;-1.424946497913251E+000;-9.934113592978953E+001;
1.124143304733295E+009;-1.451496211116479E+000;3.704103815912634E+001;
1.167073050737623E+009;-1.477089774585786E+000;1.649236883555662E+002;
1.211642234600307E+009;-1.509864615379898E+000;-7.600848427927997E+001;
1.257913464576497E+009;-1.534885279525814E+000;3.380663572921212E+001;
1.305951739858941E+009;-1.570846726566690E+000;1.340461199354248E+002;
1.355824541885154E+009;-1.598048883512867E+000;-1.356374357168797E+002;
1.407601929131501E+009;-1.630633576467266E+000;-5.557883587339713E+001;
1.461356635527369E+009;-1.667141869231579E+000;1.383216458058545E+001;
1.517164172627645E+009;-1.698989741552895E+000;7.216306842053861E+001;
1.575102935687062E+009;-1.731841680611306E+000;1.189040174724146E+002;
1.635254313785392E+009;-1.759445160343355E+000;1.536846857890207E+002;
1.697702804158197E+009;-1.794645783638911E+000;1.760805867635888E+002;
1.762536130893741E+009;-1.847394131498468E+000;-1.744866191530203E+002;
1.829845368162803E+009;-1.887425559974711E+000;-1.784066947930450E+002;
1.899725068154491E+009;-1.934757796892047E+000;1.638806717918088E+002;
1.972273393897780E+009;-1.970245174682989E+000;1.317583152196868E+002;
2.047592257155356E+009;-2.007753648954218E+000;8.465824164313568E+001;
2.125787461583465E+009;-2.033785444133553E+000;2.183469023650224E+001;
2.206968851358869E+009;-2.110289045212127E+000;-5.701988251198132E+001;
2.291250465481706E+009;-2.151174874573664E+000;-1.524469974158208E+002;
2.378750697970985E+009;-2.170961072953915E+000;9.443389603188109E+001;
2.469592464177779E+009;-2.205538527839317E+000;-3.643279519876031E+001;
2.563903373449715E+009;-2.247886861585632E+000;1.735534647509336E+002;
2.661815908389335E+009;-2.315824362921316E+000;4.296217077554140E+000;
2.763467610958116E+009;-2.365322283592300E+000;1.748332959204121E+002;
2.869001275687604E+009;-2.383712577991841E+000;-3.615837519118607E+001;
2.978565150269043E+009;-2.462791887349361E+000;9.201161105212421E+001;
3.092313143803313E+009;-2.529619677354001E+000;-1.631727971227418E+002;
3.210405043003673E+009;-2.581056315615226E+000;-8.145330688028085E+001;
3.333006736655056E+009;-2.747113323293065E+000;-2.443461453038824E+001;
3.460290448645197E+009;-2.869152099226088E+000;7.135650059507209E+000;
3.592434979894962E+009;-3.084089589526440E+000;1.316614693893251E+001;
3.729625959527711E+009;-3.108964084590939E+000;-5.862665162087459E+000;
3.872056105630537E+009;-3.012683477179286E+000;-5.576019459388414E+001;
4.019925495973672E+009;-2.951354499593490E+000;-1.344983083914825E+002;
4.173441849068368E+009;-2.981293452879464E+000;1.147954119569911E+002;
4.332820815958047E+009;-3.163965943137164E+000;-2.730817101369795E+001;
4.498286283152621E+009;-3.054534943842641E+000;1.593655617278384E+002;
4.670070687131537E+009;-3.109804301934480E+000;-4.978372521584534E+001;
4.848415340857322E+009;-3.349604860575861E+000;6.616863526693666E+001;
5.033570772758309E+009;-3.257755153838150E+000;1.451947529135034E+002;
5.225797078656734E+009;-3.491578115612165E+000;-1.738747590925394E+002;
5.425364287136548E+009;-3.461675542743012E+000;-1.730823194242551E+002;
5.632552738864227E+009;-3.577051776312516E+000;1.474291236161693E+002;
5.847653480395394E+009;-3.638001645978778E+000;6.497662099143003E+001;
6.070968673020469E+009;-3.748676111269528E+000;-6.146594512550001E+001;
6.302812017223670E+009;-3.847830602276015E+000;1.244492861616351E+002;
6.543509193351618E+009;-3.921031668300446E+000;-9.660574053640123E+001;
6.793398319110564E+009;-3.988076291086514E+000;-6.857523068366519E+000;
7.052830424534919E+009;-4.204901746059863E+000;2.991251645051248E+001;
7.322169945094285E+009;-4.328635882416156E+000;1.503410631724697E+001;
7.601795233631680E+009;-4.276180137728655E+000;-5.546636665920195E+001;
7.892099091852097E+009;-4.289388213758317E+000;1.748992761773444E+002;
8.193489322108005E+009;-4.312888407469026E+000;-1.431178952829019E+001;
8.506389300256902E+009;-4.486657870486142E+000;9.292769813036479E+001;
8.831238570395649E+009;-4.548588915001652E+000;1.376178346038338E+002;
9.168493462307018E+009;-4.640765151765817E+000;1.130107798810254E+002;
9.518627732485830E+009;-4.606317586476433E+000;1.944946076781557E+001;
9.882133229645132E+009;-4.828682954186220E+000;-1.463509767201759E+002;
1.025952058563731E+010;-4.911066422105800E+000;-2.701115998648672E+001;
1.065131993276066E+010;-5.147080277671429E+000;1.358005992491533E+001;
1.105808164845913E+010;-6.240854240926393E+000;-2.809739490511694E+001;
1.148037712846121E+010;-6.027129042883151E+000;-1.493072154385278E+002;
1.191879958944423E+010;-5.509980346143120E+000;5.246068753021983E-001;
1.237396490235132E+010;-5.687653333689522E+000;5.836913365066142E+001;
1.284651245753197E+010;-6.050125278947891E+000;2.179739085335835E+001;
1.333710606292122E+010;-6.095940118200271E+000;-1.115441464040674E+002;
1.384643487651927E+010;-5.999060207641878E+000;1.189409296997809E+001;
1.437521437448148E+010;-6.201155594459400E+000;2.456724860531445E+001;
1.492418735617858E+010;-6.305044806169956E+000;-6.255197555023076E+001;
1.549412498763898E+010;-6.850113009318676E+000;9.093634876492948E+001;
1.608582788483898E+010;-6.562897259462747E+000;1.238764125711470E+002;
1.670012723836252E+010;-6.902460591629800E+000;3.482142832563626E+001;
1.733788598101053E+010;-7.161840486961919E+000;1.738076210886643E+002;
1.800000000000000E+010;-8.136637543237129E+000;-1.749579053837290E+002;
